100%校准报文
[16:51:16.096]收←◆01 03 08 29 00 0A 16 65 
[16:51:16.124]收←◆01 03 14 00 20 00 00 41 F7 42 CD 00 0C 00 00 00 00 00 00 2D E0 43 95 F9 1D 
[16:51:16.314]收←◆01 03 09 69 00 0A 16 4D 01 03 14 00 04 00 00 EB 28 41 AE 00 0C 00 00 00 00 C1 A0 00 00 43 0C 3D 35 
[16:51:16.529]收←◆01 03 08 29 00 0A 16 65 
[16:51:16.561]收←◆01 03 14 00 20 00 00 41 F7 42 CD 00 0C 00 00 00 00 00 00 2D E0 43 95 F9 1D 
[16:51:16.792]收←◆01 03 09 69 00 0A 16 4D 01 03 14 00 04 00 00 EB 28 41 AE 00 0C 00 00 00 00 C1 A0 00 00 43 0C 3D 35 
[16:51:17.003]收←◆01 03 08 29 00 0A 16 65 
[16:51:17.033]收←◆01 03 14 00 20 00 00 41 F7 42 CD 00 0C 00 00 00 00 00 00 2D E0 43 95 F9 1D 
[16:51:17.217]收←◆01 03 09 69 00 0A 16 4D 01 03 14 00 04 00 00 EB 28 41 AE 00 0C 00 00 00 00 C1 A0 00 00 43 0C 3D 35 
[16:51:17.432]收←◆01 03 08 29 00 0A 16 65 
[16:51:17.462]收←◆01 03 14 00 20 00 00 41 F7 42 CD 00 0C 00 00 00 00 00 00 2D E0 43 95 F9 1D 
[16:51:17.647]收←◆01 03 09 69 00 0A 16 4D 01 03 14 00 04 00 00 EB 28 41 AE 00 0C 00 00 00 00 C1 A0 00 00 43 0C 3D 35 
[16:51:17.906]收←◆01 03 08 29 00 0A 16 65 
[16:51:17.934]收←◆01 03 14 00 20 00 00 41 F7 42 CD 00 0C 00 00 00 00 00 00 2D E0 43 95 F9 1D 
[16:51:18.120]收←◆01 03 09 69 00 0A 16 4D 01 03 14 00 04 00 00 EB 28 41 AE 00 0C 00 00 00 00 C1 A0 00 00 43 0C 3D 35 
[16:51:18.335]收←◆01 03 08 29 00 0A 16 65 01 03 14 00 20 00 00 41 F7 42 CD 00 0C 00 00 00 00 00 00 2D E0 43 95 F9 1D 
[16:51:18.549]收←◆01 03 09 69 00 0A 16 4D 01 03 14 00 04 00 00 EB 28 41 AE 00 0C 00 00 00 00 C1 A0 00 00 43 0C 3D 35 
[16:51:18.764]收←◆01 03 08 29 00 0A 16 65 
[16:51:18.793]收←◆01 03 14 00 20 00 00 41 F7 42 CD 00 0C 00 00 00 00 00 00 2D E0 43 95 F9 1D 
[16:51:19.022]收←◆01 03 09 69 00 0A 16 4D 01 03 14 00 04 00 00 EB 28 41 AE 00 0C 00 00 00 00 C1 A0 00 00 43 0C 3D 35 
[16:51:19.237]收←◆01 03 08 29 00 0A 16 65 
[16:51:19.266]收←◆01 03 14 00 20 00 00 41 F7 42 CD 00 0C 00 00 00 00 00 00 2D E0 43 95 F9 1D 
[16:51:19.452]收←◆01 03 09 69 00 0A 16 4D 01 03 14 00 04 00 00 EB 28 41 AE 00 0C 00 00 00 00 C1 A0 00 00 43 0C 3D 35 
[16:51:19.666]收←◆01 03 08 29 00 0A 16 65 
[16:51:19.695]收←◆01 03 14 00 20 00 00 41 F7 42 CD 00 0C 00 00 00 00 00 00 2D E0 43 95 F9 1D 
[16:51:19.881]收←◆01 03 09 69 00 0A 16 4D 01 03 14 00 04 00 00 EB 28 41 AE 00 0C 00 00 00 00 C1 A0 00 00 43 0C 3D 35 
[16:51:20.142]收←◆01 03 08 29 00 0A 16 65 
[16:51:20.172]收←◆01 03 14 00 20 00 00 41 F7 42 CD 00 0C 00 00 00 00 00 00 2D E0 43 95 F9 1D 
[16:51:20.353]收←◆01 03 09 69 00 0A 16 4D 01 03 14 00 04 00 00 EB 28 41 AE 00 0C 00 00 00 00 C1 A0 00 00 43 0C 3D 35 
[16:51:20.568]收←◆01 03 08 29 00 0A 16 65 01 03 14 00 20 00 00 41 F7 42 CD 00 0C 00 00 00 00 00 00 2D E0 43 95 F9 1D 
[16:51:20.783]收←◆01 03 09 69 00 0A 16 4D 01 03 14 00 04 00 00 EB 28 41 AE 00 0C 00 00 00 00 C1 A0 00 00 43 0C 3D 35 
[16:51:20.998]收←◆01 03 08 29 00 0A 16 65 
[16:51:21.026]收←◆01 03 14 00 20 00 00 41 F7 42 CD 00 0C 00 00 00 00 00 00 2D E0 43 95 F9 1D 
[16:51:21.257]收←◆01 03 09 69 00 0A 16 4D 01 03 14 00 04 00 00 EB 28 41 AE 00 0C 00 00 00 00 C1 A0 00 00 43 0C 3D 35 
[16:51:21.470]收←◆01 03 08 29 00 0A 16 65 
[16:51:21.506]收←◆01 03 14 00 20 00 00 41 F7 42 CD 00 0C 00 00 00 00 00 00 2D E0 43 95 F9 1D 
[16:51:21.685]收←◆01 03 09 69 00 0A 16 4D 01 03 14 00 04 00 00 EB 28 41 AE 00 0C 00 00 00 00 C1 A0 00 00 43 0C 3D 35 
[16:51:21.900]收←◆01 03 08 29 00 0A 16 65 
[16:51:21.929]收←◆01 03 14 00 20 00 00 41 F7 42 CD 00 0C 00 00 00 00 00 00 2D E0 43 95 F9 1D 
[16:51:22.115]收←◆01 03 09 69 00 0A 16 4D 01 03 14 00 04 00 00 EB 28 41 AE 00 0C 00 00 00 00 C1 A0 00 00 43 0C 3D 35 
[16:51:22.374]收←◆01 03 08 29 00 0A 16 65 
[16:51:22.401]收←◆01 03 14 00 20 00 00 41 F7 42 CD 00 0C 00 00 00 00 00 00 2D E0 43 95 F9 1D 
[16:51:22.588]收←◆01 03 09 69 00 0A 16 4D 01 03 14 00 04 00 00 EB 28 41 AE 00 0C 00 00 00 00 C1 A0 00 00 43 0C 3D 35 
[16:51:22.802]收←◆01 03 08 29 00 0A 16 65 01 03 14 00 20 00 00 41 F7 42 CD 00 0C 00 00 00 00 00 00 2D E0 43 95 F9 1D 
[16:51:23.017]收←◆01 03 09 69 00 0A 16 4D 01 03 14 00 04 00 00 EB 28 41 AE 00 0C 00 00 00 00 C1 A0 00 00 43 0C 3D 35 
[16:51:23.232]收←◆01 03 08 29 00 0A 16 65 
[16:51:23.261]收←◆01 03 14 00 20 00 00 41 F7 42 CD 00 0C 00 00 00 00 00 00 2D E0 43 95 F9 1D 
[16:51:23.491]收←◆01 03 09 69 00 0A 16 4D 01 03 14 00 04 00 00 EB 28 41 AE 00 0C 00 00 00 00 C1 A0 00 00 43 0C 3D 35 
[16:51:23.712]收←◆01 03 08 29 00 0A 16 65 01 03 14 00 20 00 00 41 F7 42 CD 00 0C 00 00 00 00 00 00 2D E0 43 95 F9 1D 
[16:51:23.920]收←◆01 03 09 69 00 0A 16 4D 01 03 14 00 04 00 00 EB 28 41 AE 00 0C 00 00 00 00 C1 A0 00 00 43 0C 3D 35 
[16:51:24.134]收←◆01 03 08 29 00 0A 16 65 
[16:51:24.163]收←◆01 03 14 00 20 00 00 41 F7 42 CD 00 0C 00 00 00 00 00 00 2D E0 43 95 F9 1D 
[16:51:24.348]收←◆01 03 09 69 00 0A 16 4D 
[16:51:24.367]收←◆01 03 14 00 04 00 00 EB 28 41 AE 00 0C 00 00 00 00 C1 A0 00 00 43 0C 3D 35 
[16:51:24.608]收←◆01 03 08 29 00 0A 16 65 
[16:51:24.636]收←◆01 03 14 00 20 00 00 41 F7 42 CD 00 0C 00 00 00 00 00 00 2D E0 43 95 F9 1D 
[16:51:24.821]收←◆01 03 09 69 00 0A 16 4D 01 03 14 00 04 00 00 EB 28 41 AE 00 0C 00 00 00 00 C1 A0 00 00 43 0C 3D 35 
[16:51:25.037]收←◆01 03 08 29 00 0A 16 65 01 03 14 00 20 00 00 41 F7 42 CD 00 0C 00 00 00 00 00 00 2D E0 43 95 F9 1D 
[16:51:25.251]收←◆01 03 09 69 00 0A 16 4D 01 03 14 00 04 00 00 EB 28 41 AE 00 0C 00 00 00 00 C1 A0 00 00 43 0C 3D 35 
[16:51:25.465]收←◆01 03 08 29 00 0A 16 65 
[16:51:25.489]收←◆01 03 14 00 20 00 00 41 F7 42 CD 00 0C 00 00 00 00 00 00 2D E0 43 95 F9 1D 
[16:51:25.724]收←◆01 03 09 69 00 0A 16 4D 01 03 14 00 04 00 00 EE FB 41 AE 00 0C 00 00 00 00 C1 A0 00 00 43 0C 6D 3B 
[16:51:25.939]收←◆01 03 08 29 00 0A 16 65 
[16:51:25.968]收←◆01 03 14 00 20 00 00 2C 2E 42 CD 00 0C 00 00 00 00 00 00 2D FE 43 95 6C FC 
[16:51:26.153]收←◆01 03 09 69 00 0A 16 4D 01 03 14 00 04 00 00 EE FB 41 AE 00 0C 00 00 00 00 C1 A0 00 00 43 0C 6D 3B 
[16:51:26.368]收←◆01 03 08 29 00 0A 16 65 
[16:51:26.397]收←◆01 03 14 00 20 00 00 2C 2E 42 CD 00 0C 00 00 00 00 00 00 2D FE 43 95 6C FC 
[16:51:26.582]收←◆01 03 09 69 00 0A 16 4D 
[16:51:26.600]收←◆01 03 14 00 04 00 00 EE FB 41 AE 00 0C 00 00 00 00 C1 A0 00 00 43 0C 6D 3B 
[16:51:26.841]收←◆01 03 08 29 00 0A 16 65 
[16:51:26.870]收←◆01 03 14 00 20 00 00 2C 2E 42 CD 00 0C 00 00 00 00 00 00 2D FE 43 95 6C FC 
[16:51:27.056]收←◆01 03 09 69 00 0A 16 4D 01 03 14 00 04 00 00 EE FB 41 AE 00 0C 00 00 00 00 C1 A0 00 00 43 0C 6D 3B 
[16:51:27.270]收←◆01 03 08 29 00 0A 16 65 
[16:51:27.299]收←◆01 03 14 00 20 00 00 2C 2E 42 CD 00 0C 00 00 00 00 00 00 2D FE 43 95 6C FC 
[16:51:27.485]收←◆01 03 09 69 00 0A 16 4D 01 03 14 00 04 00 00 EE FB 41 AE 00 0C 00 00 00 00 C1 A0 00 00 43 0C 6D 3B 
[16:51:27.700]收←◆01 03 08 29 00 0A 16 65 
[16:51:27.729]收←◆01 03 14 00 20 00 00 2C 2E 42 CD 00 0C 00 00 00 00 00 00 2D FE 43 95 6C FC 
[16:51:27.958]收←◆01 03 09 69 00 0A 16 4D 
[16:51:27.979]收←◆01 03 14 00 04 00 00 EE FB 41 AE 00 0C 00 00 00 00 C1 A0 00 00 43 0C 6D 3B 
[16:51:28.172]收←◆01 03 08 29 00 0A 16 65 
[16:51:28.203]收←◆01 03 14 00 20 00 00 2C 2E 42 CD 00 0C 00 00 00 00 00 00 2D FE 43 95 6C FC 
[16:51:28.388]收←◆01 03 09 69 00 0A 16 4D 01 03 14 00 04 00 00 EE FB 41 AE 00 0C 00 00 00 00 C1 A0 00 00 43 0C 6D 3B 
[16:51:28.602]收←◆01 03 08 29 00 0A 16 65 
[16:51:28.631]收←◆01 03 14 00 20 00 00 2C 2E 42 CD 00 0C 00 00 00 00 00 00 2D FE 43 95 6C FC 
[16:51:28.817]收←◆01 03 09 69 00 0A 16 4D 
[16:51:28.834]收←◆01 03 14 00 04 00 00 EE FB 41 AE 00 0C 00 00 00 00 C1 A0 00 00 43 0C 6D 3B 
[16:51:29.093]收←◆01 10 10 BF 00 04 08 00 30 00 00 79 CE 00 F4 97 E7 01 10 10 BF 00 04 F4 EE 
[16:51:29.618]收←◆01 10 14 49 00 02 04 00 00 00 00 C8 F5 01 10 14 49 00 02 95 EE 
[16:51:30.132]收←◆01 03 08 29 00 0A 16 65 
[16:51:30.161]收←◆01 03 14 00 20 00 00 2C 2E 42 CD 00 0C 00 00 00 00 00 00 2D FE 43 95 6C FC 
[16:51:30.362]收←◆01 10 10 BF 00 04 08 00 03 00 00 00 00 00 00 ED C0 
[16:51:30.380]收←◆01 10 10 BF 00 04 F4 EE 
[16:51:31.027]收←◆01 03 00 32 00 01 25 C5 01 83 02 C0 F1 
[16:51:31.244]收←◆01 03 04 07 00 08 F4 FD 01 03 10 44 4F 55 4F 30 4D 32 34 20 20 20 20 20 20 20 20 39 72 
[16:51:31.495]收←◆01 03 08 29 00 0A 16 65 
[16:51:31.524]收←◆01 03 14 00 20 00 00 2C 2E 42 CD 00 0C 00 00 00 00 00 00 2D FE 43 95 6C FC 
[16:51:31.708]收←◆01 03 09 69 00 0A 16 4D 01 03 14 00 04 00 00 EE FB 41 AE 00 0C 00 00 00 00 C1 A0 00 00 43 0C 6D 3B 
[16:51:31.924]收←◆01 03 08 29 00 0A 16 65 
[16:51:31.954]收←◆01 03 14 00 20 00 00 2C 2E 42 CD 00 0C 00 00 00 00 00 00 2D FE 43 95 6C FC 
[16:51:32.161]收←◆01 03 09 69 00 0A 16 4D 01 03 14 00 04 00 00 EE FB 41 AE 00 0C 00 00 00 00 C1 A0 00 00 43 0C 6D 3B 