To：老金
2023-09-20

以后关于无法skype问题，你用朋友的和我联系，发个信息，我就知道了，你们可以相互打电话，让他带你给我发个信息，即可

PHDOARC  20230913版本，发现了问题。（我测试了0417二合一版本，盐度，压力，100%校准好像没问题）
1. 连接DOARC传感器，校准菜单里面的好像都有点问题，进入以后显示，写入，再次进入读取等等
2. 测量界面主通道和温度也有时候会出现0.00，
3. LMP91200样板已经回来了，我随时可以焊接好，你准备程序吧，采用PHORP最新版本

4. DOQRI最后版本100%校准，盐度，压力操作各两遍，下面是开机到校准完成报文


[15:11:32.677]收←◆0A 03 00 00 00 06 C4 B3 
[15:11:32.713]收←◆0A 03 0C 40 F5 5C 5E 42 C7 72 55 41 E9 EB 85 C7 FA 
[15:11:33.271]收←◆0A 03 00 00 00 06 C4 B3 
[15:11:33.308]收←◆0A 03 0C 40 F5 5A CB 42 C7 71 0D 41 E9 EB 85 95 4D 
[15:11:33.797]收←◆0A 03 00 00 00 06 C4 B3 
[15:11:33.836]收←◆0A 03 0C 40 F5 5A CB 42 C7 71 0D 41 E9 EB 85 95 4D 
[15:11:34.317]收←◆0A 03 00 00 00 06 C4 B3 0A 03 0C 40 F5 5A CB 42 C7 71 0D 41 E9 EB 85 95 4D 
[15:11:34.837]收←◆0A 03 00 00 00 06 C4 B3 
[15:11:34.869]收←◆0A 03 0C 40 F5 57 B6 42 C7 77 2E 41 EA 00 00 83 17 
[15:11:35.357]收←◆0A 03 00 00 00 06 C4 B3 0A 03 0C 40 F5 57 B6 42 C7 77 2E 41 EA 00 00 83 17 
[15:11:35.877]收←◆0A 03 00 00 00 06 C4 B3 0A 03 0C 40 F5 57 B6 42 C7 77 2E 41 EA 00 00 83 17 
[15:11:36.280]收←◆0A 10 10 BF 00 04 08 00 30 00 00 79 CE 00 F4 DC E0 
[15:11:36.820]收←◆0A 10 20 27 00 02 04 C8 51 2C 9D BE 6C 
[15:11:37.374]收←◆0A 03 00 00 00 06 C4 B3 
[15:11:37.403]收←◆0A 03 0C 40 F5 56 FE 42 C7 76 98 41 EA 00 00 4C DA 
[15:11:37.897]收←◆0A 03 00 00 00 06 C4 B3 
[15:11:37.931]收←◆0A 03 0C 40 F5 56 FE 42 C7 76 98 41 EA 00 00 4C DA 
[15:11:38.417]收←◆0A 03 00 00 00 06 C4 B3 
[15:11:38.449]收←◆0A 03 0C 40 F5 56 70 42 C7 76 25 41 EA 00 00 0D 67 
[15:11:38.937]收←◆0A 03 00 00 00 06 C4 B3 0A 03 0C 40 F5 56 70 42 C7 76 25 41 EA 00 00 0D 67 
[15:11:39.457]收←◆0A 03 00 00 00 06 C4 B3 0A 03 0C 40 F5 56 70 42 C7 76 25 41 EA 00 00 0D 67 
[15:11:39.977]收←◆0A 03 00 00 00 06 C4 B3 
[15:11:40.009]收←◆0A 03 0C 40 F5 55 FA 42 C7 75 C5 41 EA 00 00 63 EB 
[15:11:40.497]收←◆0A 03 00 00 00 06 C4 B3 0A 03 0C 40 F5 55 FA 42 C7 75 C5 41 EA 00 00 63 EB 
[15:11:41.017]收←◆0A 03 00 00 00 06 C4 B3 0A 03 0C 40 F5 55 FA 42 C7 75 C5 41 EA 00 00 63 EB 
[15:11:41.537]收←◆0A 03 00 00 00 06 C4 B3 0A 03 0C 40 F5 53 40 42 C7 7C 30 41 EA 14 7B 0B 3C 
[15:11:42.057]收←◆0A 03 00 00 00 06 C4 B3 
[15:11:42.097]收←◆0A 03 0C 40 F5 53 40 42 C7 7C 30 41 EA 14 7B 0B 3C 
[15:11:42.577]收←◆0A 03 00 00 00 06 C4 B3 0A 03 0C 40 F5 53 40 42 C7 7C 30 41 EA 14 7B 0B 3C 
[15:11:43.097]收←◆0A 03 00 00 00 06 C4 B3 0A 03 0C 40 F5 52 F0 42 C7 7B EF 41 EA 14 7B FB 5A 
[15:11:43.617]收←◆0A 03 00 00 00 06 C4 B3 0A 03 0C 40 F5 52 F0 42 C7 7B EF 41 EA 14 7B FB 5A 
[15:11:44.137]收←◆0A 03 00 00 00 06 C4 B3 0A 03 0C 40 F5 52 F0 42 C7 7B EF 41 EA 14 7B FB 5A 
[15:11:44.657]收←◆0A 03 00 00 00 06 C4 B3 0A 03 0C 40 F5 52 F0 42 C7 7B EF 41 EA 14 7B FB 5A 
[15:11:45.177]收←◆0A 03 00 00 00 06 C4 B3 
[15:11:45.214]收←◆0A 03 0C 40 F5 52 3E 42 C7 7B 5E 41 EA 14 7B 9B 25 
[15:11:45.697]收←◆0A 03 00 00 00 06 C4 B3 0A 03 0C 40 F5 52 3E 42 C7 7B 5E 41 EA 14 7B 9B 25 
[15:11:46.217]收←◆0A 03 00 00 00 06 C4 B3 0A 03 0C 40 F5 52 3E 42 C7 7B 5E 41 EA 14 7B 9B 25 
[15:11:46.736]收←◆0A 03 00 00 00 06 C4 B3 0A 03 0C 40 F5 51 2B 42 C7 7A 7F 41 EA 14 7B 24 6C 
[15:11:47.257]收←◆0A 03 00 00 00 06 C4 B3 0A 03 0C 40 F5 51 2B 42 C7 7A 7F 41 EA 14 7B 24 6C 
[15:11:47.777]收←◆0A 03 00 00 00 06 C4 B3 
[15:11:47.816]收←◆0A 03 0C 40 F5 51 2B 42 C7 7A 7F 41 EA 14 7B 24 6C 
[15:11:48.296]收←◆0A 03 00 00 00 06 C4 B3 
[15:11:48.334]收←◆0A 03 0C 40 F5 4F 05 42 C7 78 C0 41 EA 14 7B 85 94 
[15:11:48.817]收←◆0A 03 00 00 00 06 C4 B3 0A 03 0C 40 F5 4F 05 42 C7 78 C0 41 EA 14 7B 85 94 
[15:11:49.336]收←◆0A 03 00 00 00 06 C4 B3 
[15:11:49.375]收←◆0A 03 0C 40 F5 4F 05 42 C7 78 C0 41 EA 14 7B 85 94 
[15:11:49.857]收←◆0A 03 00 00 00 06 C4 B3 
[15:11:49.894]收←◆0A 03 0C 40 F5 4A 8A 42 C7 7D BF 41 EA 28 F6 71 48 
[15:11:50.889]收←◆0A 06 00 1A 00 01 68 B6 0A 06 00 1A 00 01 68 B6 
[15:11:52.217]收←◆0A 03 00 32 00 01 24 BE 
[15:11:52.736]收←◆0A 03 00 1C 00 02 04 B6 
[15:11:52.775]收←◆0A 03 04 44 61 80 00 64 1D 
[15:11:53.295]收←◆0A 03 00 00 00 06 C4 B3 0A 03 0C 40 F5 6A 83 42 C7 97 BF 41 EA 28 F6 0C B8 
[15:11:53.817]收←◆0A 03 00 00 00 06 C4 B3 0A 03 0C 40 F5 6A 83 42 C7 97 BF 41 EA 28 F6 0C B8 
[15:11:54.338]收←◆0A 03 00 00 00 06 C4 B3 0A 03 0C 40 F5 6A 83 42 C7 97 BF 41 EA 28 F6 0C B8 
[15:11:54.857]收←◆0A 03 00 00 00 06 C4 B3 0A 03 0C 40 F5 79 45 42 C7 A3 C0 41 EA 28 F6 97 39 
[15:11:55.376]收←◆0A 03 00 00 00 06 C4 B3 0A 03 0C 40 F5 79 45 42 C7 A3 C0 41 EA 28 F6 97 39 
[15:11:55.897]收←◆0A 03 00 00 00 06 C4 B3 
[15:11:55.932]收←◆0A 03 0C 40 F5 79 45 42 C7 A3 C0 41 EA 28 F6 97 39 
[15:11:56.416]收←◆0A 03 00 00 00 06 C4 B3 
[15:11:56.446]收←◆0A 03 0C 40 F5 79 45 42 C7 A3 C0 41 EA 28 F6 97 39 
[15:11:56.937]收←◆0A 03 00 00 00 06 C4 B3 0A 03 0C 40 F5 87 B2 42 C7 AF 7C 41 EA 28 F6 80 2C 
[15:11:57.457]收←◆0A 03 00 00 00 06 C4 B3 0A 03 0C 40 F5 87 B2 42 C7 AF 7C 41 EA 28 F6 80 2C 
[15:11:57.976]收←◆0A 03 00 00 00 06 C4 B3 0A 03 0C 40 F5 87 B2 42 C7 AF 7C 41 EA 28 F6 80 2C 
[15:11:58.496]收←◆0A 03 00 00 00 06 C4 B3 0A 03 0C 40 F5 96 90 42 C7 C4 3A 41 EA 3D 71 9F 3B 
[15:11:59.016]收←◆0A 03 00 00 00 06 C4 B3 0A 03 0C 40 F5 96 90 42 C7 C4 3A 41 EA 3D 71 9F 3B 
[15:11:59.537]收←◆0A 03 00 00 00 06 C4 B3 0A 03 0C 40 F5 96 90 42 C7 C4 3A 41 EA 3D 71 9F 3B 
[15:12:00.056]收←◆0A 03 00 00 00 06 C4 B3 0A 03 0C 40 F5 A6 72 42 C7 D1 25 41 EA 3D 71 D8 67 
[15:12:00.577]收←◆0A 03 00 00 00 06 C4 B3 0A 03 0C 40 F5 A6 72 42 C7 D1 25 41 EA 3D 71 D8 67 
[15:12:01.096]收←◆0A 03 00 00 00 06 C4 B3 0A 03 0C 40 F5 A6 72 42 C7 D1 25 41 EA 3D 71 D8 67 
[15:12:01.617]收←◆0A 03 00 00 00 06 C4 B3 0A 03 0C 40 F5 B7 1B 42 C7 DE B2 41 EA 3D 71 3F 47 
[15:12:02.137]收←◆0A 03 00 00 00 06 C4 B3 0A 03 0C 40 F5 B7 1B 42 C7 DE B2 41 EA 3D 71 3F 47 
[15:12:02.656]收←◆0A 03 00 00 00 06 C4 B3 0A 03 0C 40 F5 B7 1B 42 C7 DE B2 41 EA 3D 71 3F 47 
[15:12:03.177]收←◆0A 03 00 00 00 06 C4 B3 0A 03 0C 40 F5 B7 1B 42 C7 DE B2 41 EA 3D 71 3F 47 
[15:12:03.696]收←◆0A 03 00 00 00 06 C4 B3 0A 03 0C 40 F5 C8 F5 42 C7 ED 38 41 EA 3D 71 14 E4 
[15:12:04.217]收←◆0A 03 00 00 00 06 C4 B3 0A 03 0C 40 F5 C8 F5 42 C7 ED 38 41 EA 3D 71 14 E4 
[15:12:04.749]收←◆0A 03 00 00 00 06 C4 B3 0A 03 0C 40 F5 C8 F5 42 C7 ED 38 41 EA 3D 71 14 E4 
[15:12:05.277]收←◆0A 03 00 00 00 06 C4 B3 0A 03 0C 40 F5 DB FB 42 C7 FC B1 41 EA 3D 71 77 80 
[15:12:05.797]收←◆0A 03 00 00 00 06 C4 B3 0A 03 0C 40 F5 DB FB 42 C7 FC B1 41 EA 3D 71 77 80 
[15:12:06.316]收←◆0A 03 00 00 00 06 C4 B3 0A 03 0C 40 F5 DB FB 42 C7 FC B1 41 EA 3D 71 77 80 
[15:12:06.836]收←◆0A 03 00 00 00 06 C4 B3 
[15:12:06.871]收←◆0A 03 0C 40 F5 EF 06 42 C8 14 DA 41 EA 51 EC 4B 76 
[15:12:07.356]收←◆0A 03 00 00 00 06 C4 B3 0A 03 0C 40 F5 EF 06 42 C8 14 DA 41 EA 51 EC 4B 76 
[15:12:08.376]收←◆0A 06 00 1A 00 01 68 B6 0A 06 00 1A 00 01 68 B6 
[15:12:09.696]收←◆0A 
[15:12:09.712]收←◆03 00 32 00 01 24 BE 
[15:12:10.216]收←◆0A 03 00 1C 00 02 04 B6 0A 03 04 44 61 80 00 64 1D 
[15:12:10.775]收←◆0A 03 00 00 00 06 C4 B3 0A 03 0C 40 F5 EC 28 42 C8 12 83 41 EA 51 EC 72 B3 
[15:12:11.296]收←◆0A 03 00 00 00 06 C4 B3 0A 03 0C 40 F5 EC 28 42 C8 12 83 41 EA 51 EC 72 B3 
[15:12:11.816]收←◆0A 03 00 00 00 06 C4 B3 
[15:12:11.853]收←◆0A 03 0C 40 F5 E9 EB 42 C8 10 B1 41 EA 51 EC 1E 70 
[15:12:12.336]收←◆0A 03 00 00 00 06 C4 B3 0A 03 0C 40 F5 E9 EB 42 C8 10 B1 41 EA 51 EC 1E 70 
[15:12:12.856]收←◆0A 03 00 00 00 06 C4 B3 
[15:12:12.894]收←◆0A 03 0C 40 F5 E9 EB 42 C8 10 B1 41 EA 51 EC 1E 70 
[15:12:13.576]收←◆0A 03 00 0E 00 02 A4 B3 0A 03 04 00 00 00 00 40 F3 
[15:12:14.153]收←◆0A 03 00 32 00 01 24 BE 
[15:12:14.676]收←◆0A 03 00 1C 00 02 04 B6 0A 03 04 44 61 80 00 64 1D 
[15:12:15.234]收←◆0A 03 00 00 00 06 C4 B3 0A 03 0C 40 F5 E0 D5 42 C8 11 F8 41 EA 66 66 9D B6 
[15:12:15.756]收←◆0A 03 00 00 00 06 C4 B3 0A 03 0C 40 F5 E0 D5 42 C8 11 F8 41 EA 66 66 9D B6 
[15:12:16.277]收←◆0A 03 00 00 00 06 C4 B3 0A 03 0C 40 F5 E0 D5 42 C8 11 F8 41 EA 66 66 9D B6 
[15:12:16.796]收←◆0A 03 00 00 00 06 C4 B3 0A 03 0C 40 F5 D9 DE 42 C8 0C 4C 41 EA 66 66 8D C1 
[15:12:17.316]收←◆0A 03 00 00 00 06 C4 B3 0A 03 0C 40 F5 D9 DE 42 C8 0C 4C 41 EA 66 66 8D C1 
[15:12:17.836]收←◆0A 03 00 00 00 06 C4 B3 
[15:12:17.875]收←◆0A 03 0C 40 F5 D9 DE 42 C8 0C 4C 41 EA 66 66 8D C1 
[15:12:18.730]收←◆0A 10 00 0E 00 02 04 3F 80 00 00 5A FB 
[15:12:18.779]收←◆0A 10 00 0E 00 02 21 70 
[15:12:19.283]收←◆0A 03 00 32 00 01 24 BE 
[15:12:19.806]收←◆0A 03 00 1C 00 02 04 B6 0A 03 04 44 61 80 00 64 1D 
[15:12:20.498]收←◆0A 03 00 0E 00 02 A4 B3 0A 03 04 3F 80 00 00 4D 0F 
[15:12:21.075]收←◆0A 03 00 32 00 01 24 BE 
[15:12:21.596]收←◆0A 03 00 1C 00 02 04 B6 0A 03 04 44 61 80 00 64 1D 
[15:12:22.155]收←◆0A 03 00 00 00 06 C4 B3 0A 03 0C 40 F5 71 38 42 C8 EB C3 41 EA 66 66 AA C5 
[15:12:22.735]收←◆0A 10 00 0E 00 02 04 3F 80 00 00 5A FB 
[15:12:22.787]收←◆0A 10 00 0E 00 02 21 70 
[15:12:23.289]收←◆0A 
[15:12:23.311]收←◆03 00 32 00 01 24 BE 
[15:12:23.816]收←◆0A 03 00 1C 00 02 04 B6 0A 03 04 44 61 80 00 64 1D 
[15:12:24.390]收←◆0A 03 00 0C 00 02 05 73 0A 03 04 42 CA A6 66 8F 3F 
[15:12:24.969]收←◆0A 03 00 32 00 01 24 BE 
[15:12:25.496]收←◆0A 03 00 1C 00 02 04 B6 0A 03 04 44 61 80 00 64 1D 
[15:12:26.054]收←◆0A 03 00 00 00 06 C4 B3 
[15:12:26.088]收←◆0A 03 0C 40 F5 12 2A 42 C8 A6 A5 41 EA 7A E1 C2 A3 
[15:12:26.576]收←◆0A 03 00 00 00 06 C4 B3 0A 03 0C 40 F5 12 2A 42 C8 A6 A5 41 EA 7A E1 C2 A3 
[15:12:27.096]收←◆0A 03 00 00 00 06 C4 B3 0A 03 0C 40 F4 E3 AD 42 C8 80 95 41 EA 7A E1 92 AD 
[15:12:27.616]收←◆0A 03 00 00 00 06 C4 B3 0A 03 0C 40 F4 E3 AD 42 C8 80 95 41 EA 7A E1 92 AD 
[15:12:28.136]收←◆0A 03 00 00 00 06 C4 B3 0A 03 0C 40 F4 E3 AD 42 C8 80 95 41 EA 7A E1 92 AD 
[15:12:28.656]收←◆0A 03 00 00 00 06 C4 B3 0A 03 0C 40 F4 B3 F3 42 C8 59 82 41 EA 7A E1 46 85 
[15:12:29.176]收←◆0A 03 00 00 00 06 C4 B3 0A 03 0C 40 F4 B3 F3 42 C8 59 82 41 EA 7A E1 46 85 
[15:12:29.696]收←◆0A 03 00 00 00 06 C4 B3 
[15:12:29.730]收←◆0A 03 0C 40 F4 B3 F3 42 C8 59 82 41 EA 7A E1 46 85 
[15:12:30.217]收←◆0A 03 00 00 00 06 C4 B3 0A 03 0C 40 F4 83 E0 42 C8 32 26 41 EA 7A E1 E6 48 
[15:12:30.736]收←◆0A 03 00 00 00 06 C4 B3 0A 03 0C 40 F4 83 E0 42 C8 32 26 41 EA 7A E1 E6 48 
[15:12:31.603]收←◆0A 10 00 0C 00 02 04 42 CA B3 33 D7 BD 0A 10 00 0C 00 02 80 B0 
[15:12:32.157]收←◆0A 03 00 32 00 01 24 BE 
[15:12:32.686]收←◆0A 03 00 1C 00 02 04 B6 0A 03 04 44 61 80 00 64 1D 
[15:12:33.271]收←◆0A 03 00 0C 00 02 05 73 0A 03 04 42 CA B3 33 41 90 
[15:12:33.849]收←◆0A 03 00 32 00 01 24 BE 
[15:12:34.376]收←◆0A 03 00 1C 00 02 04 B6 0A 03 04 44 61 80 00 64 1D 
[15:12:34.934]收←◆0A 03 00 00 00 06 C4 B3 
[15:12:34.971]收←◆0A 03 0C 40 F4 2A A0 42 C7 D8 7B 41 EA 8F 5C 82 00 
[15:12:35.455]收←◆0A 03 00 00 00 06 C4 B3 0A 03 0C 40 F4 00 53 42 C7 B5 DC 41 EA 8F 5C 8E DA 
[15:12:35.976]收←◆0A 03 00 00 00 06 C4 B3 
[15:12:36.015]收←◆0A 03 0C 40 F4 00 53 42 C7 B5 DC 41 EA 8F 5C 8E DA 
[15:12:36.496]收←◆0A 03 00 00 00 06 C4 B3 0A 03 0C 40 F4 00 53 42 C7 B5 DC 41 EA 8F 5C 8E DA 
[15:12:37.016]收←◆0A 03 00 00 00 06 C4 B3 0A 03 0C 40 F3 FD 26 42 C7 B3 42 41 EA 8F 5C F3 BF 
[15:12:37.536]收←◆0A 
[15:12:37.557]收←◆03 00 00 00 06 C4 B3 0A 03 0C 40 F3 FD 26 42 C7 B3 42 41 EA 8F 5C F3 BF 
[15:12:38.056]收←◆0A 03 00 00 00 06 C4 B3 
[15:12:38.088]收←◆0A 03 0C 40 F3 FD 26 42 C7 B3 42 41 EA 8F 5C F3 BF 
[15:12:38.575]收←◆0A 03 00 00 00 06 C4 B3 
[15:12:38.608]收←◆0A 03 0C 40 F3 FA 00 42 C7 B0 AF 41 EA 8F 5C 5C 20 
[15:12:39.096]收←◆0A 03 00 00 00 06 C4 B3 0A 03 0C 40 F3 FA 00 42 C7 B0 AF 41 EA 8F 5C 5C 20 
[15:12:39.616]收←◆0A 03 00 00 00 06 C4 B3 0A 03 0C 40 F3 FA 00 42 C7 B0 AF 41 EA 8F 5C 5C 20 
[15:12:40.136]收←◆0A 03 00 00 00 06 C4 B3 0A 03 0C 40 F3 FA 00 42 C7 B0 AF 41 EA 8F 5C 5C 20 
[15:12:40.657]收←◆0A 03 00 00 00 06 C4 B3 0A 03 0C 40 F3 F6 82 42 C7 B6 7B 41 EA A3 D7 88 6A 
[15:12:41.175]收←◆0A 03 00 00 00 06 C4 B3 0A 03 0C 40 F3 F6 82 42 C7 B6 7B 41 EA A3 D7 88 6A 
[15:12:41.695]收←◆0A 03 00 00 00 06 C4 B3 
[15:12:41.733]收←◆0A 03 0C 40 F3 F6 82 42 C7 B6 7B 41 EA A3 D7 88 6A 
[15:12:42.215]收←◆0A 03 00 00 00 06 C4 B3 0A 03 0C 40 F3 F4 3B 42 C7 B4 9E 41 EA A3 D7 3A 03 
[15:12:42.735]收←◆0A 03 00 00 00 06 C4 B3 0A 03 0C 40 F3 F4 3B 42 C7 B4 9E 41 EA A3 D7 3A 03 
[15:12:43.255]收←◆0A 03 00 00 00 06 C4 B3 
[15:12:43.293]收←◆0A 03 0C 40 F3 F4 3B 42 C7 B4 9E 41 EA A3 D7 3A 03 
[15:12:43.775]收←◆0A 03 00 00 00 06 C4 B3 
[15:12:43.813]收←◆0A 03 0C 40 F3 F3 56 42 C7 B3 E2 41 EA A3 D7 2B 36 
[15:12:44.297]收←◆0A 03 00 00 00 06 C4 B3 0A 03 0C 40 F3 F3 56 42 C7 B3 E2 41 EA A3 D7 2B 36 
[15:12:44.815]收←◆0A 03 00 00 00 06 C4 B3 
[15:12:44.853]收←◆0A 03 0C 40 F3 F3 56 42 C7 B3 E2 41 EA A3 D7 2B 36 
[15:12:45.335]收←◆0A 03 00 00 00 06 C4 B3 
[15:12:45.373]收←◆0A 03 0C 40 F3 F3 68 42 C7 B3 F1 41 EA A3 D7 B6 94 
[15:12:46.254]收←◆0A 10 00 0C 00 02 04 42 CA A6 66 19 12 
[15:12:46.299]收←◆0A 10 00 0C 00 02 80 B0 
[15:12:46.808]收←◆0A 03 00 32 00 01 24 BE 
[15:12:47.335]收←◆0A 03 00 1C 00 02 04 B6 
[15:12:47.370]收←◆0A 03 04 44 61 80 00 64 1D 
[15:12:47.893]收←◆0A 03 00 00 00 06 C4 B3 0A 03 0C 40 F3 F2 F8 42 C7 CC D1 41 EA A3 D7 C1 5F 
[15:12:48.795]收←◆0A 03 00 0C 00 02 05 73 0A 03 04 42 CA A6 66 8F 3F 
[15:12:49.373]收←◆0A 03 00 32 00 01 24 BE 
[15:12:49.896]收←◆0A 03 00 1C 00 02 04 B6 0A 03 04 44 61 80 00 64 1D 
[15:12:50.453]收←◆0A 03 00 00 00 06 C4 B3 0A 03 0C 40 F3 EF CB 42 C7 D2 E2 41 EA B8 52 DD 28 
[15:12:51.325]收←◆0A 10 00 0C 00 02 04 42 CA A6 66 19 12 
[15:12:51.371]收←◆0A 10 00 0C 00 02 80 B0 
[15:12:51.879]收←◆0A 03 00 32 00 01 24 BE 
[15:12:52.405]收←◆0A 03 00 1C 00 02 04 B6 0A 03 04 44 61 80 00 64 1D 
[15:12:52.963]收←◆0A 03 00 00 00 06 C4 B3 0A 10 10 BF 00 04 08 00 03 00 00 00 00 00 00 A6 C7 
[15:12:53.528]收←◆0A 03 00 00 00 06 C4 B3 0A 03 0C 40 F3 EC A2 42 C7 D0 4B 41 EA B8 52 B2 8F 
[15:12:54.055]收←◆0A 03 00 00 00 06 C4 B3 0A 03 0C 40 F3 E8 8A 42 C7 CC F1 41 EA B8 52 D6 DC 
[15:12:54.575]收←◆0A 03 00 00 00 06 C4 B3 0A 03 0C 40 F3 E8 8A 42 C7 CC F1 41 EA B8 52 D6 DC 
[15:12:55.095]收←◆0A 03 00 00 00 06 C4 B3 0A 03 0C 40 F3 E8 8A 42 C7 CC F1 41 EA B8 52 D6 DC 
[15:12:55.615]收←◆0A 03 00 00 00 06 C4 B3 0A 03 0C 40 F3 E4 1D 42 C7 C9 51 41 EA B8 52 1C 99 
[15:12:56.135]收←◆0A 03 00 00 00 06 C4 B3 0A 03 0C 40 F3 E4 1D 42 C7 C9 51 41 EA B8 52 1C 99 


DOARC   100%空气校准，显示校准完成，校准代码0，当前数据，什么都是对的，但是，返回测量界面数据好像不是校准后的


[09:21:17.340]收←◆05 03 08 29 00 0A 17 E1 05 03 14 00 10 00 00 3A 49 41 A4 00 00 00 00 00 00 00 00 F9 12 42 D0 20 13 
[09:21:17.857]收←◆05 03 09 69 00 0A 17 C9 05 03 14 00 04 00 00 41 08 41 F3 00 00 00 00 00 00 C0 A0 00 00 42 48 3D 3E 
[09:21:18.376]收←◆05 03 08 29 00 0A 17 E1 05 03 14 00 10 00 00 3A 49 41 A4 00 00 00 00 00 00 00 00 F9 12 42 D0 20 13 
[09:21:18.896]收←◆05 03 09 69 00 0A 17 C9 05 03 14 00 04 00 00 41 08 41 F3 00 00 00 00 00 00 C0 A0 00 00 42 48 3D 3E 
[09:21:19.416]收←◆05 03 08 29 00 0A 17 E1 05 03 14 00 10 00 00 3A 49 41 A4 00 00 00 00 00 00 00 00 F9 12 42 D0 20 13 
[09:21:19.939]收←◆05 03 09 69 00 0A 17 C9 05 03 14 00 04 00 00 33 05 41 F3 00 00 00 00 00 00 C0 A0 00 00 42 48 54 BE 
[09:21:20.456]收←◆05 03 08 29 00 0A 17 E1 05 03 14 00 10 00 00 4D F9 41 A4 00 00 00 00 00 00 00 00 F8 22 42 D0 F6 42 
[09:21:20.976]收←◆05 03 09 69 00 0A 17 C9 05 03 14 00 04 00 00 33 05 41 F3 00 00 00 00 00 00 C0 A0 00 00 42 48 54 BE 
[09:21:21.496]收←◆05 03 08 29 00 0A 17 E1 05 03 14 00 10 00 00 4D F9 41 A4 00 00 00 00 00 00 00 00 F8 22 42 D0 F6 42 
[09:21:22.016]收←◆05 03 09 69 00 0A 17 C9 05 03 14 00 04 00 00 33 05 41 F3 00 00 00 00 00 00 C0 A0 00 00 42 48 54 BE 
[09:21:22.535]收←◆05 03 08 29 00 0A 17 E1 05 03 14 00 10 00 00 4D F9 41 A4 00 00 00 00 00 00 00 00 F8 22 42 D0 F6 42 
[09:21:23.130]收←◆05 03 09 69 00 0A 17 C9 05 03 14 00 04 00 00 33 05 41 F3 00 00 00 00 00 00 C0 A0 00 00 42 48 54 BE 
[09:21:23.655]收←◆05 03 08 29 00 0A 17 E1 05 03 14 00 10 00 00 57 F1 41 A4 00 00 00 00 00 00 00 00 F8 22 42 D0 75 2F 
[09:21:24.176]收←◆05 03 09 69 00 0A 17 C9 05 03 14 00 04 00 00 33 05 41 F3 00 00 00 00 00 00 C0 A0 00 00 42 48 54 BE 
[09:21:24.696]收←◆05 03 08 29 00 0A 17 E1 05 03 14 00 10 00 00 57 F1 41 A4 00 00 00 00 00 00 00 00 F8 22 42 D0 75 2F 
[09:21:24.852]收←◆05 10 10 BF 00 04 08 00 30 00 00 79 CE 00 F4 93 E4 05 10 10 BF 00 04 F5 6A 
[09:21:25.393]收←◆05 10 20 27 00 02 04 2D 3D 9D A2 4D 29 05 10 20 27 00 02 FB 87 
[09:21:25.956]收←◆05 03 09 69 00 0A 17 C9 05 03 14 00 04 00 00 2C 05 41 F3 00 00 00 00 00 00 C0 A0 00 00 42 48 1C 86 
[09:21:26.485]收←◆05 03 08 29 00 0A 17 E1 05 03 14 00 10 00 00 6D 2A 41 A4 00 00 00 00 00 00 00 00 F7 AB 42 D0 AE 39 
[09:21:27.005]收←◆05 03 09 69 00 0A 17 C9 05 03 14 00 04 00 00 2C 05 41 F3 00 00 00 00 00 00 C0 A0 00 00 42 48 1C 86 
[09:21:27.525]收←◆05 03 08 29 00 0A 17 E1 05 03 14 00 10 00 00 6D 2A 41 A4 00 00 00 00 00 00 00 00 F7 AB 42 D0 AE 39 
[09:21:28.081]收←◆05 03 09 69 00 0A 17 C9 05 03 14 00 04 00 00 2C 05 41 F3 00 00 00 00 00 00 C0 A0 00 00 42 48 1C 86 
[09:21:28.606]收←◆05 03 08 29 00 0A 17 E1 05 03 14 00 10 00 00 6D 2A 41 A4 00 00 00 00 00 00 00 00 F7 AB 42 D0 AE 39 
[09:21:29.127]收←◆05 03 09 69 00 0A 17 C9 05 03 14 00 04 00 00 25 03 41 F3 00 00 00 00 00 00 C0 A0 00 00 42 48 5C D2 
[09:21:29.645]收←◆05 03 08 29 00 0A 17 E1 05 03 14 00 10 00 00 73 E0 41 A4 00 00 00 00 00 00 00 00 F7 33 42 D0 EC 29 
[09:21:30.165]收←◆05 03 09 69 00 0A 17 C9 05 03 14 00 04 00 00 25 03 41 F3 00 00 00 00 00 00 C0 A0 00 00 42 48 5C D2 
[09:21:30.685]收←◆05 03 08 29 00 0A 17 E1 05 03 14 00 10 00 00 73 E0 41 A4 00 00 00 00 00 00 00 00 F7 33 42 D0 EC 29 
[09:21:31.206]收←◆05 03 09 69 00 0A 17 C9 05 03 14 00 04 00 00 25 03 41 F3 00 00 00 00 00 00 C0 A0 00 00 42 48 5C D2 
[09:21:31.725]收←◆05 03 08 29 00 0A 17 E1 05 03 14 00 10 00 00 73 E0 41 A4 00 00 00 00 00 00 00 00 F7 33 42 D0 EC 29 
[09:21:32.246]收←◆05 03 09 69 00 0A 17 C9 05 03 14 00 04 00 00 1E 03 41 F3 00 00 00 00 00 00 C0 A0 00 00 42 48 0F F1 
[09:21:32.767]收←◆05 03 08 29 00 0A 17 E1 05 03 14 00 10 00 00 83 BC 41 A4 00 00 00 00 00 00 00 00 F6 BB 42 D0 75 82 
[09:21:33.286]收←◆05 03 09 69 00 0A 17 C9 05 03 14 00 04 00 00 1E 03 41 F3 00 00 00 00 00 00 C0 A0 00 00 42 48 0F F1 
[09:21:33.806]收←◆05 
[09:21:33.823]收←◆03 08 29 00 0A 17 E1 05 03 14 00 10 00 00 83 BC 41 A4 00 00 00 00 00 00 00 00 F6 BB 42 D0 75 82 
[09:21:34.325]收←◆05 03 09 69 00 0A 17 C9 05 03 14 00 04 00 00 1E 03 41 F3 00 00 00 00 00 00 C0 A0 00 00 42 48 0F F1 
[09:21:34.846]收←◆05 03 08 29 00 0A 17 E1 05 03 14 00 10 00 00 93 60 41 A4 00 00 00 00 00 00 00 00 F6 44 42 D0 94 27 
[09:21:35.365]收←◆05 03 09 69 00 0A 17 C9 05 03 14 00 04 00 00 17 02 41 F3 00 00 00 00 00 00 C0 A0 00 00 42 48 08 A7 
[09:21:35.886]收←◆05 03 08 29 00 0A 17 E1 05 03 14 00 10 00 00 93 60 41 A4 00 00 00 00 00 00 00 00 F6 44 42 D0 94 27 
[09:21:36.405]收←◆05 03 09 69 00 0A 17 C9 05 03 14 00 04 00 00 17 02 41 F3 00 00 00 00 00 00 C0 A0 00 00 42 48 08 A7 
[09:21:36.968]收←◆05 03 08 29 00 0A 17 E1 05 03 14 00 10 00 00 93 60 41 A4 00 00 00 00 00 00 00 00 F6 44 42 D0 94 27 
[09:21:37.495]收←◆05 03 09 69 00 0A 17 C9 05 03 14 00 04 00 00 17 02 41 F3 00 00 00 00 00 00 C0 A0 00 00 42 48 08 A7 
[09:21:38.096]收←◆05 03 08 29 00 0A 17 E1 05 03 14 00 10 00 00 9F EB 41 A4 00 00 00 00 00 00 00 00 F5 CD 42 D0 8B EB 
[09:21:38.615]收←◆05 03 09 69 00 0A 17 C9 05 03 14 00 04 00 00 10 02 41 F3 00 00 00 00 00 00 C0 A0 00 00 42 48 4A 95 
[09:21:39.135]收←◆05 03 08 29 00 0A 17 E1 05 03 14 00 10 00 00 9F EB 41 A4 00 00 00 00 00 00 00 00 F5 CD 42 D0 8B EB 
[09:21:39.655]收←◆05 03 09 69 00 0A 17 C9 05 03 14 00 04 00 00 10 02 41 F3 00 00 00 00 00 00 C0 A0 00 00 42 48 4A 95 
[09:21:40.375]收←◆05 03 08 29 00 0A 17 E1 05 03 14 00 10 00 00 9F EB 41 A4 00 00 00 00 00 00 00 00 F5 CD 42 D0 8B EB 
[09:21:40.970]收←◆05 03 14 45 00 06 D0 69 05 03 0C 00 00 00 00 00 10 00 00 99 9A 41 A7 F9 EB 
[09:21:41.578]收←◆05 03 15 5F 00 02 F1 91 05 03 04 00 00 42 C8 8E C5 
[09:21:42.138]收←◆05 03 08 29 00 0A 17 E1 05 03 14 00 10 00 00 A5 05 41 A4 00 00 00 00 00 00 00 00 F5 54 42 D0 A7 3B 
[09:21:42.665]收←◆05 03 09 69 00 0A 17 C9 05 03 14 00 04 00 00 09 00 41 F3 00 00 00 00 00 00 C0 A0 00 00 42 48 03 0E 
[09:21:43.185]收←◆05 03 08 29 00 0A 17 E1 05 03 14 00 10 00 00 A5 05 41 A4 00 00 00 00 00 00 00 00 F5 54 42 D0 A7 3B 
[09:21:43.705]收←◆05 03 09 69 00 0A 17 C9 05 03 14 00 04 00 00 09 00 41 F3 00 00 00 00 00 00 C0 A0 00 00 42 48 03 0E 
[09:21:44.225]收←◆05 03 08 29 00 0A 17 E1 05 03 14 00 10 00 00 B4 5C 41 A4 00 00 00 00 00 00 00 00 F4 66 42 D0 52 6E 
[09:21:44.745]收←◆05 03 09 69 00 0A 17 C9 05 03 14 00 04 00 00 FB 02 41 F2 00 00 00 00 00 00 C0 A0 00 00 42 48 46 AB 
[09:21:45.265]收←◆05 03 08 29 00 0A 17 E1 05 03 14 00 10 00 00 B4 5C 41 A4 00 00 00 00 00 00 00 00 F4 66 42 D0 52 6E 
[09:21:45.784]收←◆05 03 09 69 00 0A 17 C9 05 03 14 00 04 00 00 FB 02 41 F2 00 00 00 00 00 00 C0 A0 00 00 42 48 46 AB 
[09:21:46.305]收←◆05 
[09:21:46.324]收←◆03 08 29 00 0A 17 E1 05 03 14 00 10 00 00 B4 5C 41 A4 00 00 00 00 00 00 00 00 F4 66 42 D0 52 6E 
[09:21:46.831]收←◆05 03 09 69 00 0A 17 C9 05 03 14 00 04 00 00 ED 03 41 F2 00 00 00 00 00 00 C0 A0 00 00 42 48 09 C5 
[09:21:47.355]收←◆05 03 08 29 00 0A 17 E1 05 03 14 00 10 00 00 C9 52 41 A4 00 00 00 00 00 00 00 00 F3 76 42 D0 3D AA 
[09:21:47.875]收←◆05 03 09 69 00 0A 17 C9 05 03 14 00 04 00 00 ED 03 41 F2 00 00 00 00 00 00 C0 A0 00 00 42 48 09 C5 
[09:21:48.395]收←◆05 03 08 29 00 0A 17 E1 05 03 14 00 10 00 00 C9 52 41 A4 00 00 00 00 00 00 00 00 F3 76 42 D0 3D AA 
[09:21:48.915]收←◆05 
[09:21:48.938]收←◆03 09 69 00 0A 17 C9 05 03 14 00 04 00 00 ED 03 41 F2 00 00 00 00 00 00 C0 A0 00 00 42 48 09 C5 
[09:21:49.435]收←◆05 03 08 29 00 0A 17 E1 05 03 14 00 10 00 00 C9 52 41 A4 00 00 00 00 00 00 00 00 F3 76 42 D0 3D AA 
[09:21:49.955]收←◆05 03 09 69 00 0A 17 C9 05 03 14 00 04 00 00 E6 05 41 F2 00 00 00 00 00 00 C0 A0 00 00 42 48 C8 F0 
[09:21:50.475]收←◆05 03 08 29 00 0A 17 E1 05 03 14 00 10 00 00 CF 09 41 A4 00 00 00 00 00 00 00 00 F2 FF 42 D0 75 25 
[09:21:50.995]收←◆05 03 09 69 00 0A 17 C9 05 03 14 00 04 00 00 E6 05 41 F2 00 00 00 00 00 00 C0 A0 00 00 42 48 C8 F0 
[09:21:51.516]收←◆05 03 08 29 00 0A 17 E1 05 03 14 00 10 00 00 CF 09 41 A4 00 00 00 00 00 00 00 00 F2 FF 42 D0 75 25 
[09:21:52.035]收←◆05 03 09 69 00 0A 17 C9 05 03 14 00 04 00 00 E6 05 41 F2 00 00 00 00 00 00 C0 A0 00 00 42 48 C8 F0 
[09:21:52.555]收←◆05 
[09:21:52.572]收←◆03 08 29 00 0A 17 E1 05 03 14 00 10 00 00 CF 09 41 A4 00 00 00 00 00 00 00 00 F2 FF 42 D0 75 25 
[09:21:53.076]收←◆05 03 09 69 00 0A 17 C9 05 03 14 00 04 00 00 D1 0A 41 F2 00 00 00 00 00 00 C0 A0 00 00 42 48 D1 D2 
[09:21:53.597]收←◆05 03 08 29 00 0A 17 E1 05 03 14 00 10 00 00 DE 28 41 A4 00 00 00 00 00 00 00 00 F1 9A 42 D0 48 3A 
[09:21:54.115]收←◆05 03 09 69 00 0A 17 C9 05 03 14 00 04 00 00 D1 0A 41 F2 00 00 00 00 00 00 C0 A0 00 00 42 48 D1 D2 
[09:21:54.634]收←◆05 03 08 29 00 0A 17 E1 05 03 14 00 10 00 00 DE 28 41 A4 00 00 00 00 00 00 00 00 F1 9A 42 D0 48 3A 
[09:21:55.198]收←◆05 03 09 69 00 0A 17 C9 05 03 14 00 04 00 00 D1 0A 41 F2 00 00 00 00 00 00 C0 A0 00 00 42 48 D1 D2 
[09:21:55.724]收←◆05 03 08 29 00 0A 17 E1 05 03 14 00 10 00 00 DE 28 41 A4 00 00 00 00 00 00 00 00 F1 9A 42 D0 48 3A 
[09:21:56.244]收←◆05 03 09 69 00 0A 17 C9 05 03 14 00 04 00 00 CA 0B 41 F2 00 00 00 00 00 00 C0 A0 00 00 42 48 5A 29 
[09:21:56.765]收←◆05 03 08 29 00 0A 17 E1 05 03 14 00 10 00 00 E6 D1 41 A4 00 00 00 00 00 00 00 00 F1 21 42 D0 12 8F 
[09:21:57.487]收←◆05 03 08 29 00 0A 17 E1 05 03 14 00 10 00 00 E6 D1 41 A4 00 00 00 00 00 00 00 00 F1 21 42 D0 12 8F 
[09:21:58.044]收←◆05 03 08 29 00 0A 17 E1 05 03 14 00 10 00 00 E6 D1 41 A4 00 00 00 00 00 00 00 00 F1 21 42 D0 12 8F 
[09:21:58.191]收←◆05 03 14 45 00 06 D0 69 05 03 0C 00 00 00 00 00 10 00 00 99 9A 41 A7 F9 EB 
[09:21:58.800]收←◆05 03 15 5F 00 02 F1 91 05 03 04 00 00 42 C8 8E C5 
[09:21:59.509]收←◆05 03 09 69 00 0A 17 C9 05 03 14 00 04 00 00 C3 0D 41 F2 00 00 00 00 00 00 C0 A0 00 00 42 48 1A 7D 
[09:22:00.035]收←◆05 03 08 29 00 0A 17 E1 05 03 14 00 10 00 00 E9 67 41 A4 00 00 00 00 00 00 00 00 F0 AA 42 D0 10 DB 
[09:22:00.555]收←◆05 
[09:22:00.576]收←◆03 09 69 00 0A 17 C9 05 03 14 00 04 00 00 C3 0D 41 F2 00 00 00 00 00 00 C0 A0 00 00 42 48 1A 7D 
[09:22:01.074]收←◆05 03 08 29 00 0A 17 E1 05 03 14 00 10 00 00 E9 67 41 A4 00 00 00 00 00 00 00 00 F0 AA 42 D0 10 DB 
[09:22:01.595]收←◆05 03 09 69 00 0A 17 C9 05 03 14 00 04 00 00 C3 0D 41 F2 00 00 00 00 00 00 C0 A0 00 00 42 48 1A 7D 
[09:22:02.115]收←◆05 03 08 29 00 0A 17 E1 05 03 14 00 10 00 00 E8 7C 41 A4 00 00 00 00 00 00 00 00 F0 33 42 D0 5A 6F 
[09:22:02.535]收←◆05 10 10 BF 00 04 08 00 03 00 00 00 00 00 00 E9 C3 05 10 10 BF 00 04 F5 6A 
[09:22:03.075]收←◆05 03 09 69 00 0A 17 C9 05 03 14 00 04 00 00 BC 0E 41 F2 00 00 00 00 00 00 C0 A0 00 00 42 48 39 6C 
[09:22:03.594]收←◆05 03 08 29 00 0A 17 E1 05 03 14 00 10 00 00 E8 7C 41 A4 00 00 00 00 00 00 00 00 F0 33 42 D0 5A 6F 
[09:22:04.115]收←◆05 03 09 69 00 0A 17 C9 05 03 14 00 04 00 00 BC 0E 41 F2 00 00 00 00 00 00 C0 A0 00 00 42 48 39 6C 
[09:22:04.635]收←◆05 03 08 29 00 0A 17 E1 05 03 14 00 10 00 00 E8 7C 41 A4 00 00 00 00 00 00 00 00 F0 33 42 D0 5A 6F 

上述100%操作了两边

盐度补偿，我操作了两次，分别写入了1.0000，再次进入一直显示0.00

[09:24:43.871]收←◆05 03 09 69 00 0A 17 C9 05 03 14 00 04 00 00 D6 29 41 F0 00 00 00 00 00 00 C0 A0 00 00 42 48 F7 BB 
[09:24:44.390]收←◆05 03 08 29 00 0A 17 E1 05 03 14 00 10 00 00 90 9C 41 A5 00 00 00 00 00 00 00 00 D0 0C 42 D0 A1 48 
[09:24:44.911]收←◆05 03 09 69 00 0A 17 C9 05 03 14 00 04 00 00 D6 29 41 F0 00 00 00 00 00 00 C0 A0 00 00 42 48 F7 BB 
[09:24:45.431]收←◆05 03 08 29 00 0A 17 E1 05 03 14 00 10 00 00 90 9C 41 A5 00 00 00 00 00 00 00 00 D0 0C 42 D0 A1 48 
[09:24:45.950]收←◆05 03 09 69 00 0A 17 C9 05 03 14 00 04 00 00 D6 29 41 F0 00 00 00 00 00 00 C0 A0 00 00 42 48 F7 BB 
[09:24:46.471]收←◆05 03 08 29 00 0A 17 E1 05 03 14 00 10 00 00 90 9C 41 A5 00 00 00 00 00 00 00 00 D0 0C 42 D0 A1 48 3E F4 93 E4 
[09:24:47.055]收←◆05 10 20 27 00 02 04 2E 06 9D A2 3C A0 05 90 02 8C 00 
[09:24:47.610]收←◆05 03 09 69 00 0A 17 C9 05 03 14 00 04 00 00 CA 90 41 F0 00 00 00 00 00 00 C0 A0 00 00 42 48 86 00 
[09:24:48.087]收←◆05 
[09:24:48.104]收←◆03 0C 29 00 08 97 10 05 03 10 04 00 00 00 00 00 00 00 00 00 00 00 00 00 42 48 27 3C 
[09:24:48.665]收←◆05 03 08 29 00 0A 17 E1 05 03 14 00 10 00 00 95 19 41 A5 00 00 00 00 00 00 00 00 CF 49 42 D0 31 79 
[09:24:49.190]收←◆05 03 09 69 00 0A 17 C9 05 03 14 00 04 00 00 CA 90 41 F0 00 00 00 00 00 00 C0 A0 00 00 42 48 86 00 
[09:24:49.712]收←◆05 03 08 29 00 0A 17 E1 05 03 14 00 10 00 00 95 19 41 A5 00 00 00 00 00 00 00 00 CF 49 42 D0 31 79 
[09:24:50.231]收←◆05 03 09 69 00 0A 17 C9 05 03 14 00 04 00 00 C1 4B 41 F0 00 00 00 00 00 00 C0 A0 00 00 42 48 5A 6C 
[09:24:50.790]收←◆05 
[09:24:50.806]收←◆03 08 29 00 0A 17 E1 05 03 14 00 10 00 00 91 CA 41 A5 00 00 00 00 00 00 00 00 CE AD 42 D0 E1 2C 
[09:24:51.311]收←◆05 03 09 69 00 0A 17 C9 05 03 14 00 04 00 00 C1 4B 41 F0 00 00 00 00 00 00 C0 A0 00 00 42 48 5A 6C 
[09:24:51.830]收←◆05 03 08 29 00 0A 17 E1 05 03 14 00 10 00 00 91 CA 41 A5 00 00 00 00 00 00 00 00 CE AD 42 D0 E1 2C 
[09:24:52.223]收←◆05 
[09:24:52.244]收←◆10 0C 29 00 04 08 04 00 00 00 00 00 3F 80 2F B5 05 90 02 8C 00 
[09:24:52.783]收←◆05 03 09 69 00 0A 17 C9 05 03 14 00 04 00 00 C1 4B 41 F0 00 00 00 00 00 00 C0 A0 00 00 42 48 5A 6C 
[09:24:53.310]收←◆05 03 08 29 00 0A 17 E1 05 03 14 00 10 00 00 97 82 41 A5 00 00 00 00 00 00 00 00 CE 11 42 D0 EB 5C 
[09:24:53.699]收←◆05 03 0C 29 00 08 97 10 05 03 10 04 00 00 00 00 00 00 00 00 00 00 00 00 00 42 48 27 3C 
[09:24:54.278]收←◆05 03 09 69 00 0A 17 C9 05 03 14 00 04 00 00 B8 05 41 F0 00 00 00 00 00 00 C0 A0 00 00 42 48 77 EA 
[09:24:54.800]收←◆05 
[09:24:54.824]收←◆03 08 29 00 0A 17 E1 05 03 14 00 10 00 00 97 82 41 A5 00 00 00 00 00 00 00 00 CE 11 42 D0 EB 5C 
[09:24:55.321]收←◆05 03 
[09:24:55.344]收←◆09 69 00 0A 17 C9 05 03 14 00 04 00 00 B8 05 41 F0 00 00 00 00 00 00 C0 A0 00 00 42 48 77 EA 
[09:24:55.841]收←◆05 03 08 29 00 0A 17 E1 05 03 14 00 10 00 00 9A 38 41 A5 00 00 00 00 00 00 00 00 CD 76 42 D0 A4 21 
[09:24:56.362]收←◆05 03 09 69 00 0A 17 C9 05 03 14 00 04 00 00 AE C0 41 F0 00 00 00 00 00 00 C0 A0 00 00 42 48 FC D7 
[09:24:56.880]收←◆05 
[09:24:56.906]收←◆03 08 29 00 0A 17 E1 05 03 14 00 10 00 00 9A 38 41 A5 00 00 00 00 00 00 00 00 CD 76 42 D0 A4 21 
[09:24:57.400]收←◆05 03 09 69 00 0A 17 C9 05 03 14 00 04 00 00 AE C0 41 F0 00 00 00 00 00 00 C0 A0 00 00 42 48 FC D7 
[09:24:57.492]收←◆05 10 0C 29 00 04 08 04 00 00 00 00 00 3F 80 2F B5 05 90 02 8C 00 
[09:24:58.029]收←◆05 03 08 29 00 0A 17 E1 
[09:24:58.072]收←◆05 03 14 00 10 00 00 9A 38 41 A5 00 00 00 00 00 00 00 00 CD 76 42 D0 A4 21 
[09:24:58.551]收←◆05 
[09:24:58.571]收←◆03 09 69 00 0A 17 C9 05 03 14 00 04 00 00 AE C0 41 F0 00 00 00 00 00 00 C0 A0 00 00 42 48 FC D7 
[09:24:58.727]收←◆05 03 0C 29 00 08 97 10 05 03 10 04 00 00 00 00 00 00 00 00 00 00 00 00 00 42 48 27 3C 
[09:24:59.305]收←◆05 
[09:24:59.332]收←◆03 08 29 00 0A 17 E1 05 03 14 00 10 00 00 9E ED 41 A5 00 00 00 00 00 00 00 00 CC DA 42 D0 72 60 
[09:24:59.830]收←◆05 
[09:24:59.859]收←◆03 09 69 00 0A 17 C9 05 03 14 00 04 00 00 A5 7B 41 F0 00 00 00 00 00 00 C0 A0 00 00 42 48 40 93 
[09:25:00.351]收←◆05 
[09:25:00.375]收←◆03 08 29 00 0A 17 E1 05 03 14 00 10 00 00 9E ED 41 A5 00 00 00 00 00 00 00 00 CC DA 42 D0 72 60 
[09:25:00.870]收←◆05 03 09 69 00 0A 17 C9 05 03 14 00 04 00 00 A5 7B 41 F0 00 00 00 00 00 00 C0 A0 00 00 42 48 40 93 
[09:25:01.430]收←◆05 
[09:25:01.454]收←◆03 08 29 00 0A 17 E1 05 03 14 00 10 00 00 9E ED 41 A5 00 00 00 00 00 00 00 00 CC DA 42 D0 72 60 
[09:25:01.950]收←◆05 
[09:25:01.979]收←◆03 09 69 00 0A 17 C9 05 03 14 00 04 00 00 99 E5 41 F0 00 00 00 00 00 00 C0 A0 00 00 42 48 4F EA 
[09:25:02.470]收←◆05 
[09:25:02.503]收←◆03 08 29 00 0A 17 E1 05 03 14 00 10 00 00 A6 73 41 A5 00 00 00 00 00 00 00 00 CC 18 42 D0 DE 26 
[09:25:02.990]收←◆05 
[09:25:03.022]收←◆03 09 69 00 0A 17 C9 05 03 14 00 04 00 00 99 E5 41 F0 00 00 00 00 00 00 C0 A0 00 00 42 48 4F EA 
[09:25:03.512]收←◆05 03 08 29 00 0A 17 E1 05 03 14 00 10 00 00 A6 73 41 A5 00 00 00 00 00 00 00 00 CC 18 42 D0 DE 26 

气压设置，我操作了几遍，感觉都正确，我多次输入了1013,1012,1014，你可以看看代码，有没有，这个基本每次都成功，再次进入显示正确


[09:25:37.539]收←◆05 03 08 29 00 0A 17 E1 05 03 14 00 10 00 00 B5 A6 41 A5 00 00 00 00 00 00 00 00 C5 6B 42 D0 74 03 
[09:25:38.060]收←◆05 03 09 69 00 0A 17 C9 05 03 14 00 04 00 00 2A D4 41 F0 00 00 00 00 00 00 C0 A0 00 00 42 48 8B BB 
[09:25:38.580]收←◆05 03 08 29 00 0A 17 E1 05 03 14 00 10 00 00 B4 90 41 A5 00 00 00 00 00 00 00 00 C4 D0 42 D0 72 5C 
[09:25:39.099]收←◆05 03 09 69 00 0A 17 C9 05 03 14 00 04 00 00 2A D4 41 F0 00 00 00 00 00 00 C0 A0 00 00 42 48 8B BB 
[09:25:39.621]收←◆05 03 08 29 00 0A 17 E1 05 03 14 00 10 00 00 B4 90 41 A5 00 00 00 00 00 00 00 00 C4 D0 42 D0 72 5C 
[09:25:40.084]收←◆05 10 10 BF 00 04 08 00 30 00 00 79 CE 00 F4 93 E4 05 10 10 BF 00 04 F5 6A 
[09:25:40.626]收←◆05 10 20 27 00 02 04 2E 3C 9D A2 1C AD 05 10 20 27 00 02 FB 87 
[09:25:41.180]收←◆05 03 09 69 00 0A 17 C9 05 03 14 00 04 00 00 21 94 41 F0 00 00 00 00 00 00 C0 A0 00 00 42 48 8C BC 
[09:25:41.709]收←◆05 03 08 29 00 0A 17 E1 05 03 14 00 10 00 00 B1 B9 41 A5 00 00 00 00 00 00 00 00 C4 35 42 D0 49 E6 
[09:25:41.859]收←◆05 03 0C 49 00 08 97 0E 05 03 10 00 00 00 80 40 00 44 7D 00 00 41 20 80 00 46 3B 41 61 
[09:25:42.566]收←◆05 03 09 69 00 0A 17 C9 05 03 14 00 04 00 00 21 94 41 F0 00 00 00 00 00 00 C0 A0 00 00 42 48 8C BC 
[09:25:43.091]收←◆05 03 08 29 00 0A 17 E1 05 03 14 00 10 00 00 B1 B9 41 A5 00 00 00 00 00 00 00 00 C4 35 42 D0 49 E6 
[09:25:43.609]收←◆05 03 09 69 00 0A 17 C9 05 03 14 00 04 00 00 21 94 41 F0 00 00 00 00 00 00 C0 A0 00 00 42 48 8C BC 
[09:25:44.130]收←◆05 03 08 29 00 0A 17 E1 05 03 14 00 10 00 00 B6 EB 41 A5 00 00 00 00 00 00 00 00 C3 9B 42 D0 B9 7C 
[09:25:44.651]收←◆05 03 09 69 00 0A 17 C9 05 03 14 00 04 00 00 18 54 41 F0 00 00 00 00 00 00 C0 A0 00 00 42 48 9E AE 
[09:25:45.169]收←◆05 03 08 29 00 0A 17 E1 05 03 14 00 10 00 00 B6 EB 41 A5 00 00 00 00 00 00 00 00 C3 9B 42 D0 B9 7C 
[09:25:45.689]收←◆05 03 09 69 00 0A 17 C9 05 03 14 00 04 00 00 18 54 41 F0 00 00 00 00 00 00 C0 A0 00 00 42 48 9E AE 
[09:25:46.209]收←◆05 03 08 29 00 0A 17 E1 05 03 14 00 10 00 00 B6 EB 41 A5 00 00 00 00 00 00 00 00 C3 9B 42 D0 B9 7C 
[09:25:46.729]收←◆05 03 09 69 00 0A 17 C9 05 03 14 00 04 00 00 18 54 41 F0 00 00 00 00 00 00 C0 A0 00 00 42 48 9E AE 
[09:25:47.249]收←◆05 03 08 29 00 0A 17 E1 05 03 14 00 10 00 00 BD 62 41 A5 00 00 00 00 00 00 00 00 C3 25 42 D0 D7 09 
[09:25:47.641]收←◆05 10 0C 49 00 04 08 00 00 00 80 40 00 44 7D 59 A9 
[09:25:47.701]收←◆05 10 0C 49 00 04 12 C8 
[09:25:48.179]收←◆05 03 09 69 00 0A 17 C9 05 03 14 00 04 00 00 11 65 41 F0 00 00 00 00 00 00 C0 A0 00 00 42 48 A9 EC 
[09:25:48.699]收←◆05 03 08 29 00 0A 17 E1 05 03 14 00 10 00 00 BD 62 41 A5 00 00 00 00 00 00 00 00 C3 25 42 D0 D7 09 
[09:25:48.870]收←◆05 03 0C 49 00 08 97 0E 05 03 10 00 00 00 80 40 00 44 7D 00 00 41 20 80 00 46 3B 41 61 
[09:25:49.451]收←◆05 03 09 69 00 0A 17 C9 05 03 14 00 04 00 00 11 65 41 F0 00 00 00 00 00 00 C0 A0 00 00 42 48 A9 EC 
[09:25:49.979]收←◆05 03 08 29 00 0A 17 E1 05 03 14 00 10 00 00 C1 58 41 A5 00 00 00 00 00 00 00 00 C2 8B 42 D0 2D E6 
[09:25:50.499]收←◆05 03 09 69 00 0A 17 C9 05 03 14 00 04 00 00 08 27 41 F0 00 00 00 00 00 00 C0 A0 00 00 42 48 A0 47 
[09:25:51.019]收←◆05 03 08 29 00 0A 17 E1 05 03 14 00 10 00 00 C1 58 41 A5 00 00 00 00 00 00 00 00 C2 8B 42 D0 2D E6 
[09:25:51.539]收←◆05 03 09 69 00 0A 17 C9 05 03 14 00 04 00 00 08 27 41 F0 00 00 00 00 00 00 C0 A0 00 00 42 48 A0 47 
[09:25:52.058]收←◆05 03 08 29 00 0A 17 E1 05 03 14 00 10 00 00 C1 58 41 A5 00 00 00 00 00 00 00 00 C2 8B 42 D0 2D E6 
[09:25:52.580]收←◆05 03 09 69 00 0A 17 C9 05 03 14 00 04 00 00 08 27 41 F0 00 00 00 00 00 00 C0 A0 00 00 42 48 A0 47 
[09:25:53.099]收←◆05 03 08 29 00 0A 17 E1 05 03 14 00 10 00 00 C9 35 41 A5 00 00 00 00 00 00 00 00 C1 F0 42 D0 F7 50 
[09:25:53.619]收←◆05 03 09 69 00 0A 17 C9 05 03 14 00 04 00 00 FE EA 41 EF 00 00 00 00 00 00 C0 A0 00 00 42 48 40 6B 
[09:25:53.871]收←◆05 10 0C 49 00 04 08 00 00 00 80 80 00 44 7D 65 A9 
[09:25:53.931]收←◆05 10 0C 49 00 04 12 C8 
[09:25:54.412]收←◆05 03 08 29 00 0A 17 E1 05 03 14 00 10 00 00 9D 86 41 A5 00 00 00 00 00 00 00 00 8A EE 42 D0 4D 38 
[09:25:54.929]收←◆05 03 09 69 00 0A 17 C9 05 03 14 00 04 00 00 FE EA 41 EF 00 00 00 00 00 00 C0 A0 00 00 42 48 40 6B 
[09:25:55.039]收←◆05 
[09:25:55.056]收←◆03 0C 49 00 08 97 0E 05 03 10 00 00 00 80 80 00 44 7D 00 00 41 20 80 00 46 3B 42 20 
[09:25:55.621]收←◆05 03 08 29 00 0A 17 E1 05 03 14 00 10 00 00 9D 86 41 A5 00 00 00 00 00 00 00 00 8A EE 42 D0 4D 38 
[09:25:56.149]收←◆05 03 09 69 00 0A 17 C9 05 03 14 00 04 00 00 F5 AB 41 EF 00 00 00 00 00 00 C0 A0 00 00 42 48 86 6C 
[09:25:56.669]收←◆05 03 08 29 00 0A 17 E1 05 03 14 00 10 00 00 9C 30 41 A5 00 00 00 00 00 00 00 00 8A 54 42 D0 9B 3B 
[09:25:57.189]收←◆05 03 09 69 00 0A 17 C9 05 03 14 00 04 00 00 F5 AB 41 EF 00 00 00 00 00 00 C0 A0 00 00 42 48 86 6C 
[09:25:57.708]收←◆05 03 08 29 00 0A 17 E1 
[09:25:57.745]收←◆05 03 14 00 10 00 00 9C 30 41 A5 00 00 00 00 00 00 00 00 8A 54 42 D0 9B 3B 
[09:25:58.229]收←◆05 03 09 69 00 0A 17 C9 05 03 14 00 04 00 00 F5 AB 41 EF 00 00 00 00 00 00 C0 A0 00 00 42 48 86 6C 
[09:25:58.728]收←◆05 10 0C 49 00 04 08 00 00 00 80 40 00 44 7D 59 A9 
[09:25:58.790]收←◆05 10 0C 49 00 04 12 C8 
[09:25:59.266]收←◆05 03 08 29 00 0A 17 E1 05 03 14 00 10 00 00 E5 DC 41 A5 00 00 00 00 00 00 00 00 C0 BB 42 D0 B3 29 
[09:25:59.789]收←◆05 
[09:25:59.806]收←◆03 09 69 00 0A 17 C9 05 03 14 00 04 00 00 EC 6C 41 EF 00 00 00 00 00 00 C0 A0 00 00 42 48 CA A4 
[09:25:59.896]收←◆05 03 0C 49 00 08 97 0E 05 03 10 00 00 00 80 40 00 44 7D 00 00 41 20 80 00 46 3B 41 61 
[09:26:00.454]收←◆05 03 08 29 00 0A 17 E1 05 03 14 00 10 00 00 E5 DC 41 A5 00 00 00 00 00 00 00 00 C0 BB 42 D0 B3 29 
[09:26:00.979]收←◆05 03 09 69 00 0A 17 C9 05 03 14 00 04 00 00 EC 6C 41 EF 00 00 00 00 00 00 C0 A0 00 00 42 48 CA A4 
[09:26:01.498]收←◆05 03 08 29 00 0A 17 E1 05 03 14 00 10 00 00 E5 DC 41 A5 00 00 00 00 00 00 00 00 C0 BB 42 D0 B3 29 
[09:26:02.019]收←◆05 03 09 69 00 0A 17 C9 05 03 14 00 04 00 00 E3 2E 41 EF 00 00 00 00 00 00 C0 A0 00 00 42 48 4D 61 
[09:26:02.539]收←◆05 
[09:26:02.556]收←◆03 08 29 00 0A 17 E1 05 03 14 00 10 00 00 E7 48 41 A5 00 00 00 00 00 00 00 00 C0 20 42 D0 D7 C8 
[09:26:03.059]收←◆05 03 09 69 00 0A 17 C9 05 03 14 00 04 00 00 E3 2E 41 EF 00 00 00 00 00 00 C0 A0 00 00 42 48 4D 61 
[09:26:03.579]收←◆05 03 08 29 00 0A 17 E1 05 03 14 00 10 00 00 E7 48 41 A5 00 00 00 00 00 00 00 00 C0 20 42 D0 D7 C8 
[09:26:04.098]收←◆05 03 09 69 00 0A 17 C9 05 03 14 00 04 00 00 E3 2E 41 EF 00 00 00 00 00 00 C0 A0 00 00 42 48 4D 61 
[09:26:04.559]收←◆05 10 0C 49 00 04 08 00 00 00 80 00 00 44 7D 4C 69 
[09:26:04.620]收←◆05 10 0C 49 00 04 12 C8 
[09:26:05.119]收←◆05 03 08 29 00 0A 17 E1 05 03 14 00 10 00 00 12 70 41 A6 00 00 00 00 00 00 00 00 F6 A5 42 D0 73 6F 
[09:26:05.649]收←◆05 
[09:26:05.667]收←◆03 09 69 00 0A 17 C9 05 03 14 00 04 00 00 D9 EF 41 EF 00 00 00 00 00 00 C0 A0 00 00 42 48 DE 82 
[09:26:05.727]收←◆05 03 0C 49 00 08 97 0E 05 03 10 00 00 00 80 00 00 44 7D 00 00 41 20 80 00 46 3B 40 5E 
[09:26:06.307]收←◆05 03 08 29 00 0A 17 E1 05 03 14 00 10 00 00 12 70 41 A6 00 00 00 00 00 00 00 00 F6 A5 42 D0 73 6F 
[09:26:06.829]收←◆05 03 09 69 00 0A 17 C9 05 03 14 00 04 00 00 D9 EF 41 EF 00 00 00 00 00 00 C0 A0 00 00 42 48 DE 82 
[09:26:07.349]收←◆05 03 08 29 00 0A 17 E1 05 03 14 00 10 00 00 12 70 41 A6 00 00 00 00 00 00 00 00 F6 A5 42 D0 73 6F 
[09:26:07.868]收←◆05 03 09 69 00 0A 17 C9 05 03 14 00 04 00 00 D9 EF 41 EF 00 00 00 00 00 00 C0 A0 00 00 42 48 DE 82 
[09:26:08.391]收←◆05 03 08 29 00 0A 17 E1 05 03 14 00 10 00 00 14 BD 41 A6 00 00 00 00 00 00 00 00 F6 31 42 D0 BC 74 
[09:26:08.908]收←◆05 03 09 69 00 0A 17 C9 05 03 14 00 04 00 00 D3 00 41 EF 00 00 00 00 00 00 C0 A0 00 00 42 48 F7 69 
[09:26:09.429]收←◆05 
[09:26:09.451]收←◆03 08 29 00 0A 17 E1 05 03 14 00 10 00 00 14 BD 41 A6 00 00 00 00 00 00 00 00 F6 31 42 D0 BC 74 
[09:26:09.948]收←◆05 03 09 69 00 0A 17 C9 05 03 14 00 04 00 00 D3 00 41 EF 00 00 00 00 00 00 C0 A0 00 00 42 48 F7 69 
[09:26:10.224]收←◆05 10 0C 49 00 04 08 00 00 00 80 40 00 44 7D 59 A9 
[09:26:10.281]收←◆05 10 0C 49 00 04 12 C8 
[09:26:10.782]收←◆05 03 08 29 00 0A 17 E1 05 03 14 00 10 00 00 E8 EE 41 A5 00 00 00 00 00 00 00 00 BF 12 42 D0 0C 5D 
[09:26:11.309]收←◆05 03 09 69 00 0A 17 C9 05 03 14 00 04 00 00 CC 11 41 EF 00 00 00 00 00 00 C0 A0 00 00 42 48 6E 5D 
[09:26:11.830]收←◆05 03 08 29 00 0A 17 E1 05 03 14 00 10 00 00 EA 51 41 A5 00 00 00 00 00 00 00 00 BE 9E 42 D0 B2 5B 
[09:26:12.224]收←◆05 03 0C 49 00 08 97 0E 05 03 10 00 00 00 80 40 00 44 7D 00 00 41 20 80 00 46 3B 41 61 
[09:26:12.805]收←◆05 03 09 69 00 0A 17 C9 05 03 14 00 04 00 00 CC 11 41 EF 00 00 00 00 00 00 C0 A0 00 00 42 48 6E 5D 
[09:26:13.329]收←◆05 03 08 29 00 0A 17 E1 05 03 14 00 10 00 00 EA 51 41 A5 00 00 00 00 00 00 00 00 BE 9E 42 D0 B2 5B 
[09:26:13.928]收←◆05 03 09 69 00 0A 17 C9 05 03 14 00 04 00 00 CC 11 41 EF 00 00 00 00 00 00 C0 A0 00 00 42 48 6E 5D 
[09:26:14.108]收←◆05 10 10 BF 00 04 08 00 03 00 00 00 00 00 00 E9 C3 05 10 10 BF 00 04 F5 6A 
[09:26:14.646]收←◆05 03 08 29 00 0A 17 E1 
[09:26:14.684]收←◆05 03 14 00 10 00 00 EA B4 41 A5 00 00 00 00 00 00 00 00 BE 2B 42 D0 86 F6 
[09:26:15.168]收←◆05 03 09 69 00 0A 17 C9 05 03 14 00 04 00 00 C5 23 41 EF 00 00 00 00 00 00 C0 A0 00 00 42 48 1A 1E 
[09:26:15.688]收←◆05 03 08 29 00 0A 17 E1 05 03 14 00 10 00 00 EA B4 41 A5 00 00 00 00 00 00 00 00 BE 2B 42 D0 86 F6 
[09:26:16.208]收←◆05 
[09:26:16.230]收←◆03 09 69 00 0A 17 C9 05 03 14 00 04 00 00 C5 23 41 EF 00 00 00 00 00 00 C0 A0 00 00 42 48 1A 1E 
