To：老金
2023-09-20

以后关于无法skype问题，你用朋友的和我联系，发个信息，我就知道了，你们可以相互打电话，让他带你给我发个信息，即可

PHDOARC  20230913版本，发现了问题。
1. 连接DOARC传感器，校准菜单里面的好像都不太好用了，好像发送命令不成功，读取也会不成功
2. 测量界面主通道和温度也有时候会出现0.00


3. LMP91200样板已经回来了，我随时可以焊接好，你准备程序吧，采用PHORP最新版本


4. DOQRI最后版本100%校准，盐度，压力操作各两遍，下面是开机到校准完成报文


[15:11:32.677]收←◆0A 03 00 00 00 06 C4 B3 
[15:11:32.713]收←◆0A 03 0C 40 F5 5C 5E 42 C7 72 55 41 E9 EB 85 C7 FA 
[15:11:33.271]收←◆0A 03 00 00 00 06 C4 B3 
[15:11:33.308]收←◆0A 03 0C 40 F5 5A CB 42 C7 71 0D 41 E9 EB 85 95 4D 
[15:11:33.797]收←◆0A 03 00 00 00 06 C4 B3 
[15:11:33.836]收←◆0A 03 0C 40 F5 5A CB 42 C7 71 0D 41 E9 EB 85 95 4D 
[15:11:34.317]收←◆0A 03 00 00 00 06 C4 B3 0A 03 0C 40 F5 5A CB 42 C7 71 0D 41 E9 EB 85 95 4D 
[15:11:34.837]收←◆0A 03 00 00 00 06 C4 B3 
[15:11:34.869]收←◆0A 03 0C 40 F5 57 B6 42 C7 77 2E 41 EA 00 00 83 17 
[15:11:35.357]收←◆0A 03 00 00 00 06 C4 B3 0A 03 0C 40 F5 57 B6 42 C7 77 2E 41 EA 00 00 83 17 
[15:11:35.877]收←◆0A 03 00 00 00 06 C4 B3 0A 03 0C 40 F5 57 B6 42 C7 77 2E 41 EA 00 00 83 17 
[15:11:36.280]收←◆0A 10 10 BF 00 04 08 00 30 00 00 79 CE 00 F4 DC E0 
[15:11:36.820]收←◆0A 10 20 27 00 02 04 C8 51 2C 9D BE 6C 
[15:11:37.374]收←◆0A 03 00 00 00 06 C4 B3 
[15:11:37.403]收←◆0A 03 0C 40 F5 56 FE 42 C7 76 98 41 EA 00 00 4C DA 
[15:11:37.897]收←◆0A 03 00 00 00 06 C4 B3 
[15:11:37.931]收←◆0A 03 0C 40 F5 56 FE 42 C7 76 98 41 EA 00 00 4C DA 
[15:11:38.417]收←◆0A 03 00 00 00 06 C4 B3 
[15:11:38.449]收←◆0A 03 0C 40 F5 56 70 42 C7 76 25 41 EA 00 00 0D 67 
[15:11:38.937]收←◆0A 03 00 00 00 06 C4 B3 0A 03 0C 40 F5 56 70 42 C7 76 25 41 EA 00 00 0D 67 
[15:11:39.457]收←◆0A 03 00 00 00 06 C4 B3 0A 03 0C 40 F5 56 70 42 C7 76 25 41 EA 00 00 0D 67 
[15:11:39.977]收←◆0A 03 00 00 00 06 C4 B3 
[15:11:40.009]收←◆0A 03 0C 40 F5 55 FA 42 C7 75 C5 41 EA 00 00 63 EB 
[15:11:40.497]收←◆0A 03 00 00 00 06 C4 B3 0A 03 0C 40 F5 55 FA 42 C7 75 C5 41 EA 00 00 63 EB 
[15:11:41.017]收←◆0A 03 00 00 00 06 C4 B3 0A 03 0C 40 F5 55 FA 42 C7 75 C5 41 EA 00 00 63 EB 
[15:11:41.537]收←◆0A 03 00 00 00 06 C4 B3 0A 03 0C 40 F5 53 40 42 C7 7C 30 41 EA 14 7B 0B 3C 
[15:11:42.057]收←◆0A 03 00 00 00 06 C4 B3 
[15:11:42.097]收←◆0A 03 0C 40 F5 53 40 42 C7 7C 30 41 EA 14 7B 0B 3C 
[15:11:42.577]收←◆0A 03 00 00 00 06 C4 B3 0A 03 0C 40 F5 53 40 42 C7 7C 30 41 EA 14 7B 0B 3C 
[15:11:43.097]收←◆0A 03 00 00 00 06 C4 B3 0A 03 0C 40 F5 52 F0 42 C7 7B EF 41 EA 14 7B FB 5A 
[15:11:43.617]收←◆0A 03 00 00 00 06 C4 B3 0A 03 0C 40 F5 52 F0 42 C7 7B EF 41 EA 14 7B FB 5A 
[15:11:44.137]收←◆0A 03 00 00 00 06 C4 B3 0A 03 0C 40 F5 52 F0 42 C7 7B EF 41 EA 14 7B FB 5A 
[15:11:44.657]收←◆0A 03 00 00 00 06 C4 B3 0A 03 0C 40 F5 52 F0 42 C7 7B EF 41 EA 14 7B FB 5A 
[15:11:45.177]收←◆0A 03 00 00 00 06 C4 B3 
[15:11:45.214]收←◆0A 03 0C 40 F5 52 3E 42 C7 7B 5E 41 EA 14 7B 9B 25 
[15:11:45.697]收←◆0A 03 00 00 00 06 C4 B3 0A 03 0C 40 F5 52 3E 42 C7 7B 5E 41 EA 14 7B 9B 25 
[15:11:46.217]收←◆0A 03 00 00 00 06 C4 B3 0A 03 0C 40 F5 52 3E 42 C7 7B 5E 41 EA 14 7B 9B 25 
[15:11:46.736]收←◆0A 03 00 00 00 06 C4 B3 0A 03 0C 40 F5 51 2B 42 C7 7A 7F 41 EA 14 7B 24 6C 
[15:11:47.257]收←◆0A 03 00 00 00 06 C4 B3 0A 03 0C 40 F5 51 2B 42 C7 7A 7F 41 EA 14 7B 24 6C 
[15:11:47.777]收←◆0A 03 00 00 00 06 C4 B3 
[15:11:47.816]收←◆0A 03 0C 40 F5 51 2B 42 C7 7A 7F 41 EA 14 7B 24 6C 
[15:11:48.296]收←◆0A 03 00 00 00 06 C4 B3 
[15:11:48.334]收←◆0A 03 0C 40 F5 4F 05 42 C7 78 C0 41 EA 14 7B 85 94 
[15:11:48.817]收←◆0A 03 00 00 00 06 C4 B3 0A 03 0C 40 F5 4F 05 42 C7 78 C0 41 EA 14 7B 85 94 
[15:11:49.336]收←◆0A 03 00 00 00 06 C4 B3 
[15:11:49.375]收←◆0A 03 0C 40 F5 4F 05 42 C7 78 C0 41 EA 14 7B 85 94 
[15:11:49.857]收←◆0A 03 00 00 00 06 C4 B3 
[15:11:49.894]收←◆0A 03 0C 40 F5 4A 8A 42 C7 7D BF 41 EA 28 F6 71 48 
[15:11:50.889]收←◆0A 06 00 1A 00 01 68 B6 0A 06 00 1A 00 01 68 B6 
[15:11:52.217]收←◆0A 03 00 32 00 01 24 BE 
[15:11:52.736]收←◆0A 03 00 1C 00 02 04 B6 
[15:11:52.775]收←◆0A 03 04 44 61 80 00 64 1D 
[15:11:53.295]收←◆0A 03 00 00 00 06 C4 B3 0A 03 0C 40 F5 6A 83 42 C7 97 BF 41 EA 28 F6 0C B8 
[15:11:53.817]收←◆0A 03 00 00 00 06 C4 B3 0A 03 0C 40 F5 6A 83 42 C7 97 BF 41 EA 28 F6 0C B8 
[15:11:54.338]收←◆0A 03 00 00 00 06 C4 B3 0A 03 0C 40 F5 6A 83 42 C7 97 BF 41 EA 28 F6 0C B8 
[15:11:54.857]收←◆0A 03 00 00 00 06 C4 B3 0A 03 0C 40 F5 79 45 42 C7 A3 C0 41 EA 28 F6 97 39 
[15:11:55.376]收←◆0A 03 00 00 00 06 C4 B3 0A 03 0C 40 F5 79 45 42 C7 A3 C0 41 EA 28 F6 97 39 
[15:11:55.897]收←◆0A 03 00 00 00 06 C4 B3 
[15:11:55.932]收←◆0A 03 0C 40 F5 79 45 42 C7 A3 C0 41 EA 28 F6 97 39 
[15:11:56.416]收←◆0A 03 00 00 00 06 C4 B3 
[15:11:56.446]收←◆0A 03 0C 40 F5 79 45 42 C7 A3 C0 41 EA 28 F6 97 39 
[15:11:56.937]收←◆0A 03 00 00 00 06 C4 B3 0A 03 0C 40 F5 87 B2 42 C7 AF 7C 41 EA 28 F6 80 2C 
[15:11:57.457]收←◆0A 03 00 00 00 06 C4 B3 0A 03 0C 40 F5 87 B2 42 C7 AF 7C 41 EA 28 F6 80 2C 
[15:11:57.976]收←◆0A 03 00 00 00 06 C4 B3 0A 03 0C 40 F5 87 B2 42 C7 AF 7C 41 EA 28 F6 80 2C 
[15:11:58.496]收←◆0A 03 00 00 00 06 C4 B3 0A 03 0C 40 F5 96 90 42 C7 C4 3A 41 EA 3D 71 9F 3B 
[15:11:59.016]收←◆0A 03 00 00 00 06 C4 B3 0A 03 0C 40 F5 96 90 42 C7 C4 3A 41 EA 3D 71 9F 3B 
[15:11:59.537]收←◆0A 03 00 00 00 06 C4 B3 0A 03 0C 40 F5 96 90 42 C7 C4 3A 41 EA 3D 71 9F 3B 
[15:12:00.056]收←◆0A 03 00 00 00 06 C4 B3 0A 03 0C 40 F5 A6 72 42 C7 D1 25 41 EA 3D 71 D8 67 
[15:12:00.577]收←◆0A 03 00 00 00 06 C4 B3 0A 03 0C 40 F5 A6 72 42 C7 D1 25 41 EA 3D 71 D8 67 
[15:12:01.096]收←◆0A 03 00 00 00 06 C4 B3 0A 03 0C 40 F5 A6 72 42 C7 D1 25 41 EA 3D 71 D8 67 
[15:12:01.617]收←◆0A 03 00 00 00 06 C4 B3 0A 03 0C 40 F5 B7 1B 42 C7 DE B2 41 EA 3D 71 3F 47 
[15:12:02.137]收←◆0A 03 00 00 00 06 C4 B3 0A 03 0C 40 F5 B7 1B 42 C7 DE B2 41 EA 3D 71 3F 47 
[15:12:02.656]收←◆0A 03 00 00 00 06 C4 B3 0A 03 0C 40 F5 B7 1B 42 C7 DE B2 41 EA 3D 71 3F 47 
[15:12:03.177]收←◆0A 03 00 00 00 06 C4 B3 0A 03 0C 40 F5 B7 1B 42 C7 DE B2 41 EA 3D 71 3F 47 
[15:12:03.696]收←◆0A 03 00 00 00 06 C4 B3 0A 03 0C 40 F5 C8 F5 42 C7 ED 38 41 EA 3D 71 14 E4 
[15:12:04.217]收←◆0A 03 00 00 00 06 C4 B3 0A 03 0C 40 F5 C8 F5 42 C7 ED 38 41 EA 3D 71 14 E4 
[15:12:04.749]收←◆0A 03 00 00 00 06 C4 B3 0A 03 0C 40 F5 C8 F5 42 C7 ED 38 41 EA 3D 71 14 E4 
[15:12:05.277]收←◆0A 03 00 00 00 06 C4 B3 0A 03 0C 40 F5 DB FB 42 C7 FC B1 41 EA 3D 71 77 80 
[15:12:05.797]收←◆0A 03 00 00 00 06 C4 B3 0A 03 0C 40 F5 DB FB 42 C7 FC B1 41 EA 3D 71 77 80 
[15:12:06.316]收←◆0A 03 00 00 00 06 C4 B3 0A 03 0C 40 F5 DB FB 42 C7 FC B1 41 EA 3D 71 77 80 
[15:12:06.836]收←◆0A 03 00 00 00 06 C4 B3 
[15:12:06.871]收←◆0A 03 0C 40 F5 EF 06 42 C8 14 DA 41 EA 51 EC 4B 76 
[15:12:07.356]收←◆0A 03 00 00 00 06 C4 B3 0A 03 0C 40 F5 EF 06 42 C8 14 DA 41 EA 51 EC 4B 76 
[15:12:08.376]收←◆0A 06 00 1A 00 01 68 B6 0A 06 00 1A 00 01 68 B6 
[15:12:09.696]收←◆0A 
[15:12:09.712]收←◆03 00 32 00 01 24 BE 
[15:12:10.216]收←◆0A 03 00 1C 00 02 04 B6 0A 03 04 44 61 80 00 64 1D 
[15:12:10.775]收←◆0A 03 00 00 00 06 C4 B3 0A 03 0C 40 F5 EC 28 42 C8 12 83 41 EA 51 EC 72 B3 
[15:12:11.296]收←◆0A 03 00 00 00 06 C4 B3 0A 03 0C 40 F5 EC 28 42 C8 12 83 41 EA 51 EC 72 B3 
[15:12:11.816]收←◆0A 03 00 00 00 06 C4 B3 
[15:12:11.853]收←◆0A 03 0C 40 F5 E9 EB 42 C8 10 B1 41 EA 51 EC 1E 70 
[15:12:12.336]收←◆0A 03 00 00 00 06 C4 B3 0A 03 0C 40 F5 E9 EB 42 C8 10 B1 41 EA 51 EC 1E 70 
[15:12:12.856]收←◆0A 03 00 00 00 06 C4 B3 
[15:12:12.894]收←◆0A 03 0C 40 F5 E9 EB 42 C8 10 B1 41 EA 51 EC 1E 70 
[15:12:13.576]收←◆0A 03 00 0E 00 02 A4 B3 0A 03 04 00 00 00 00 40 F3 
[15:12:14.153]收←◆0A 03 00 32 00 01 24 BE 
[15:12:14.676]收←◆0A 03 00 1C 00 02 04 B6 0A 03 04 44 61 80 00 64 1D 
[15:12:15.234]收←◆0A 03 00 00 00 06 C4 B3 0A 03 0C 40 F5 E0 D5 42 C8 11 F8 41 EA 66 66 9D B6 
[15:12:15.756]收←◆0A 03 00 00 00 06 C4 B3 0A 03 0C 40 F5 E0 D5 42 C8 11 F8 41 EA 66 66 9D B6 
[15:12:16.277]收←◆0A 03 00 00 00 06 C4 B3 0A 03 0C 40 F5 E0 D5 42 C8 11 F8 41 EA 66 66 9D B6 
[15:12:16.796]收←◆0A 03 00 00 00 06 C4 B3 0A 03 0C 40 F5 D9 DE 42 C8 0C 4C 41 EA 66 66 8D C1 
[15:12:17.316]收←◆0A 03 00 00 00 06 C4 B3 0A 03 0C 40 F5 D9 DE 42 C8 0C 4C 41 EA 66 66 8D C1 
[15:12:17.836]收←◆0A 03 00 00 00 06 C4 B3 
[15:12:17.875]收←◆0A 03 0C 40 F5 D9 DE 42 C8 0C 4C 41 EA 66 66 8D C1 
[15:12:18.730]收←◆0A 10 00 0E 00 02 04 3F 80 00 00 5A FB 
[15:12:18.779]收←◆0A 10 00 0E 00 02 21 70 
[15:12:19.283]收←◆0A 03 00 32 00 01 24 BE 
[15:12:19.806]收←◆0A 03 00 1C 00 02 04 B6 0A 03 04 44 61 80 00 64 1D 
[15:12:20.498]收←◆0A 03 00 0E 00 02 A4 B3 0A 03 04 3F 80 00 00 4D 0F 
[15:12:21.075]收←◆0A 03 00 32 00 01 24 BE 
[15:12:21.596]收←◆0A 03 00 1C 00 02 04 B6 0A 03 04 44 61 80 00 64 1D 
[15:12:22.155]收←◆0A 03 00 00 00 06 C4 B3 0A 03 0C 40 F5 71 38 42 C8 EB C3 41 EA 66 66 AA C5 
[15:12:22.735]收←◆0A 10 00 0E 00 02 04 3F 80 00 00 5A FB 
[15:12:22.787]收←◆0A 10 00 0E 00 02 21 70 
[15:12:23.289]收←◆0A 
[15:12:23.311]收←◆03 00 32 00 01 24 BE 
[15:12:23.816]收←◆0A 03 00 1C 00 02 04 B6 0A 03 04 44 61 80 00 64 1D 
[15:12:24.390]收←◆0A 03 00 0C 00 02 05 73 0A 03 04 42 CA A6 66 8F 3F 
[15:12:24.969]收←◆0A 03 00 32 00 01 24 BE 
[15:12:25.496]收←◆0A 03 00 1C 00 02 04 B6 0A 03 04 44 61 80 00 64 1D 
[15:12:26.054]收←◆0A 03 00 00 00 06 C4 B3 
[15:12:26.088]收←◆0A 03 0C 40 F5 12 2A 42 C8 A6 A5 41 EA 7A E1 C2 A3 
[15:12:26.576]收←◆0A 03 00 00 00 06 C4 B3 0A 03 0C 40 F5 12 2A 42 C8 A6 A5 41 EA 7A E1 C2 A3 
[15:12:27.096]收←◆0A 03 00 00 00 06 C4 B3 0A 03 0C 40 F4 E3 AD 42 C8 80 95 41 EA 7A E1 92 AD 
[15:12:27.616]收←◆0A 03 00 00 00 06 C4 B3 0A 03 0C 40 F4 E3 AD 42 C8 80 95 41 EA 7A E1 92 AD 
[15:12:28.136]收←◆0A 03 00 00 00 06 C4 B3 0A 03 0C 40 F4 E3 AD 42 C8 80 95 41 EA 7A E1 92 AD 
[15:12:28.656]收←◆0A 03 00 00 00 06 C4 B3 0A 03 0C 40 F4 B3 F3 42 C8 59 82 41 EA 7A E1 46 85 
[15:12:29.176]收←◆0A 03 00 00 00 06 C4 B3 0A 03 0C 40 F4 B3 F3 42 C8 59 82 41 EA 7A E1 46 85 
[15:12:29.696]收←◆0A 03 00 00 00 06 C4 B3 
[15:12:29.730]收←◆0A 03 0C 40 F4 B3 F3 42 C8 59 82 41 EA 7A E1 46 85 
[15:12:30.217]收←◆0A 03 00 00 00 06 C4 B3 0A 03 0C 40 F4 83 E0 42 C8 32 26 41 EA 7A E1 E6 48 
[15:12:30.736]收←◆0A 03 00 00 00 06 C4 B3 0A 03 0C 40 F4 83 E0 42 C8 32 26 41 EA 7A E1 E6 48 
[15:12:31.603]收←◆0A 10 00 0C 00 02 04 42 CA B3 33 D7 BD 0A 10 00 0C 00 02 80 B0 
[15:12:32.157]收←◆0A 03 00 32 00 01 24 BE 
[15:12:32.686]收←◆0A 03 00 1C 00 02 04 B6 0A 03 04 44 61 80 00 64 1D 
[15:12:33.271]收←◆0A 03 00 0C 00 02 05 73 0A 03 04 42 CA B3 33 41 90 
[15:12:33.849]收←◆0A 03 00 32 00 01 24 BE 
[15:12:34.376]收←◆0A 03 00 1C 00 02 04 B6 0A 03 04 44 61 80 00 64 1D 
[15:12:34.934]收←◆0A 03 00 00 00 06 C4 B3 
[15:12:34.971]收←◆0A 03 0C 40 F4 2A A0 42 C7 D8 7B 41 EA 8F 5C 82 00 
[15:12:35.455]收←◆0A 03 00 00 00 06 C4 B3 0A 03 0C 40 F4 00 53 42 C7 B5 DC 41 EA 8F 5C 8E DA 
[15:12:35.976]收←◆0A 03 00 00 00 06 C4 B3 
[15:12:36.015]收←◆0A 03 0C 40 F4 00 53 42 C7 B5 DC 41 EA 8F 5C 8E DA 
[15:12:36.496]收←◆0A 03 00 00 00 06 C4 B3 0A 03 0C 40 F4 00 53 42 C7 B5 DC 41 EA 8F 5C 8E DA 
[15:12:37.016]收←◆0A 03 00 00 00 06 C4 B3 0A 03 0C 40 F3 FD 26 42 C7 B3 42 41 EA 8F 5C F3 BF 
[15:12:37.536]收←◆0A 
[15:12:37.557]收←◆03 00 00 00 06 C4 B3 0A 03 0C 40 F3 FD 26 42 C7 B3 42 41 EA 8F 5C F3 BF 
[15:12:38.056]收←◆0A 03 00 00 00 06 C4 B3 
[15:12:38.088]收←◆0A 03 0C 40 F3 FD 26 42 C7 B3 42 41 EA 8F 5C F3 BF 
[15:12:38.575]收←◆0A 03 00 00 00 06 C4 B3 
[15:12:38.608]收←◆0A 03 0C 40 F3 FA 00 42 C7 B0 AF 41 EA 8F 5C 5C 20 
[15:12:39.096]收←◆0A 03 00 00 00 06 C4 B3 0A 03 0C 40 F3 FA 00 42 C7 B0 AF 41 EA 8F 5C 5C 20 
[15:12:39.616]收←◆0A 03 00 00 00 06 C4 B3 0A 03 0C 40 F3 FA 00 42 C7 B0 AF 41 EA 8F 5C 5C 20 
[15:12:40.136]收←◆0A 03 00 00 00 06 C4 B3 0A 03 0C 40 F3 FA 00 42 C7 B0 AF 41 EA 8F 5C 5C 20 
[15:12:40.657]收←◆0A 03 00 00 00 06 C4 B3 0A 03 0C 40 F3 F6 82 42 C7 B6 7B 41 EA A3 D7 88 6A 
[15:12:41.175]收←◆0A 03 00 00 00 06 C4 B3 0A 03 0C 40 F3 F6 82 42 C7 B6 7B 41 EA A3 D7 88 6A 
[15:12:41.695]收←◆0A 03 00 00 00 06 C4 B3 
[15:12:41.733]收←◆0A 03 0C 40 F3 F6 82 42 C7 B6 7B 41 EA A3 D7 88 6A 
[15:12:42.215]收←◆0A 03 00 00 00 06 C4 B3 0A 03 0C 40 F3 F4 3B 42 C7 B4 9E 41 EA A3 D7 3A 03 
[15:12:42.735]收←◆0A 03 00 00 00 06 C4 B3 0A 03 0C 40 F3 F4 3B 42 C7 B4 9E 41 EA A3 D7 3A 03 
[15:12:43.255]收←◆0A 03 00 00 00 06 C4 B3 
[15:12:43.293]收←◆0A 03 0C 40 F3 F4 3B 42 C7 B4 9E 41 EA A3 D7 3A 03 
[15:12:43.775]收←◆0A 03 00 00 00 06 C4 B3 
[15:12:43.813]收←◆0A 03 0C 40 F3 F3 56 42 C7 B3 E2 41 EA A3 D7 2B 36 
[15:12:44.297]收←◆0A 03 00 00 00 06 C4 B3 0A 03 0C 40 F3 F3 56 42 C7 B3 E2 41 EA A3 D7 2B 36 
[15:12:44.815]收←◆0A 03 00 00 00 06 C4 B3 
[15:12:44.853]收←◆0A 03 0C 40 F3 F3 56 42 C7 B3 E2 41 EA A3 D7 2B 36 
[15:12:45.335]收←◆0A 03 00 00 00 06 C4 B3 
[15:12:45.373]收←◆0A 03 0C 40 F3 F3 68 42 C7 B3 F1 41 EA A3 D7 B6 94 
[15:12:46.254]收←◆0A 10 00 0C 00 02 04 42 CA A6 66 19 12 
[15:12:46.299]收←◆0A 10 00 0C 00 02 80 B0 
[15:12:46.808]收←◆0A 03 00 32 00 01 24 BE 
[15:12:47.335]收←◆0A 03 00 1C 00 02 04 B6 
[15:12:47.370]收←◆0A 03 04 44 61 80 00 64 1D 
[15:12:47.893]收←◆0A 03 00 00 00 06 C4 B3 0A 03 0C 40 F3 F2 F8 42 C7 CC D1 41 EA A3 D7 C1 5F 
[15:12:48.795]收←◆0A 03 00 0C 00 02 05 73 0A 03 04 42 CA A6 66 8F 3F 
[15:12:49.373]收←◆0A 03 00 32 00 01 24 BE 
[15:12:49.896]收←◆0A 03 00 1C 00 02 04 B6 0A 03 04 44 61 80 00 64 1D 
[15:12:50.453]收←◆0A 03 00 00 00 06 C4 B3 0A 03 0C 40 F3 EF CB 42 C7 D2 E2 41 EA B8 52 DD 28 
[15:12:51.325]收←◆0A 10 00 0C 00 02 04 42 CA A6 66 19 12 
[15:12:51.371]收←◆0A 10 00 0C 00 02 80 B0 
[15:12:51.879]收←◆0A 03 00 32 00 01 24 BE 
[15:12:52.405]收←◆0A 03 00 1C 00 02 04 B6 0A 03 04 44 61 80 00 64 1D 
[15:12:52.963]收←◆0A 03 00 00 00 06 C4 B3 0A 10 10 BF 00 04 08 00 03 00 00 00 00 00 00 A6 C7 
[15:12:53.528]收←◆0A 03 00 00 00 06 C4 B3 0A 03 0C 40 F3 EC A2 42 C7 D0 4B 41 EA B8 52 B2 8F 
[15:12:54.055]收←◆0A 03 00 00 00 06 C4 B3 0A 03 0C 40 F3 E8 8A 42 C7 CC F1 41 EA B8 52 D6 DC 
[15:12:54.575]收←◆0A 03 00 00 00 06 C4 B3 0A 03 0C 40 F3 E8 8A 42 C7 CC F1 41 EA B8 52 D6 DC 
[15:12:55.095]收←◆0A 03 00 00 00 06 C4 B3 0A 03 0C 40 F3 E8 8A 42 C7 CC F1 41 EA B8 52 D6 DC 
[15:12:55.615]收←◆0A 03 00 00 00 06 C4 B3 0A 03 0C 40 F3 E4 1D 42 C7 C9 51 41 EA B8 52 1C 99 
[15:12:56.135]收←◆0A 03 00 00 00 06 C4 B3 0A 03 0C 40 F3 E4 1D 42 C7 C9 51 41 EA B8 52 1C 99 