进入第一点校准：

[16:18:26.325]收←◆01 03 0F BD 00 03 96 FB 01 83 04 40 F3 
[16:18:26.440]收←◆01 03 0F C3 00 03 F6 E3 01 83 04 40 F3 
[16:18:26.683]收←◆01 03 08 11 00 03 57 AE 01 03 06 43 DC 40 FF 6E 80 F6 65 
[16:18:26.798]收←◆01 03 07 E7 00 03 B4 88 01 03 06 CC CD C2 7E 6E 80 6D 09 
[16:18:26.917]收←◆01 03 07 FF 00 03 34 8F 01 83 04 40 F3 
[16:18:27.033]收←◆01 03 07 DB 00 03 74 84 01 03 06 AE 14 41 CB 6F 80 41 6A 
[16:18:27.147]收←◆01 03 0B FF 00 03 37 DF 01 83 04 40 F3 
[16:18:27.263]收←◆01 03 0B C3 00 03 F7 D3 01 83 04 40 F3 
[16:18:27.377]收←◆01 03 0B F3 00 03 F7 DC 01 83 04 40 F3 
[16:18:27.498]收←◆01 03 0B F9 00 03 D7 DE 01 83 04 40 F3 
[16:18:27.631]收←◆01 03 13 93 00 03 F1 62 01 83 04 40 F3 
[16:18:27.747]收←◆01 03 13 AB 00 03 70 AF 01 83 04 40 F3 
[16:18:27.861]收←◆01 03 13 B1 00 03 51 68 01 83 04 40 F3 
[16:18:27.976]收←◆01 03 0F AB 00 03 77 3F 01 83 04 40 F3 
[16:18:28.095]收←◆01 03 0F BD 00 03 96 FB 01 83 04 40 F3 
[16:18:28.210]收←◆01 03 0F C3 00 03 F6 E3 01 83 04 40 F3 
[16:18:28.353]收←◆01 03 08 11 00 03 57 AE 01 03 06 23 83 40 FF 71 80 63 F8 
[16:18:28.466]收←◆01 03 07 E7 00 03 B4 88 01 03 06 99 9A C2 7D 72 80 EC 00 
[16:18:28.581]收←◆01 03 07 FF 00 03 34 8F 01 83 04 40 F3 
[16:18:28.701]收←◆01 03 07 DB 00 03 74 84 01 03 06 AE 14 41 CB 72 80 48 3A 
[16:18:28.815]收←◆01 03 0B FF 00 03 37 DF 01 83 04 40 F3 
[16:18:28.931]收←◆01 03 0B C3 00 03 F7 D3 01 83 04 40 F3 
[16:18:29.046]收←◆01 03 0B F3 00 03 F7 DC 01 83 04 40 F3 
[16:18:29.161]收←◆01 03 0B F9 00 03 D7 DE 01 83 04 40 F3 
[16:18:29.281]收←◆01 03 13 93 00 03 F1 62 01 83 04 40 F3 
[16:18:29.413]收←◆01 03 13 AB 00 03 70 AF 01 83 04 40 F3 
[16:18:29.529]收←◆01 03 13 B1 00 03 51 68 01 83 04 40 F3 
[16:18:29.650]收←◆01 03 0F AB 00 03 77 3F 01 83 04 40 F3 
[16:18:29.765]收←◆01 03 0F BD 00 03 96 FB 01 83 04 40 F3 
[16:18:29.885]收←◆01 03 0F C3 00 03 F6 E3 01 83 04 40 F3 
[16:18:30.000]收←◆01 03 08 11 00 03 57 AE 01 03 06 F2 FE 40 FE 75 80 4E B3 
[16:18:30.114]收←◆01 03 07 E7 00 03 B4 88 01 03 06 CC CD C2 7C 75 80 C6 39 
[16:18:30.230]收←◆01 03 07 FF 00 03 34 8F 01 83 04 40 F3 
[16:18:30.345]收←◆01 03 07 DB 00 03 74 84 01 03 06 AE 14 41 CB 75 80 4A 0A 
[16:18:30.465]收←◆01 03 0B FF 00 03 37 DF 01 83 04 40 F3 
[16:18:30.579]收←◆01 03 0B C3 00 03 F7 D3 01 83 04 40 F3 
[16:18:30.713]收←◆01 03 0B F3 00 03 F7 DC 01 83 04 40 F3 
[16:18:30.827]收←◆01 03 0B F9 00 03 D7 DE 01 83 04 40 F3 
[16:18:30.944]收←◆01 03 13 93 00 03 F1 62 01 83 04 40 F3 
[16:18:31.062]收←◆01 03 13 AB 00 03 70 AF 01 83 04 40 F3 
[16:18:31.176]收←◆01 03 13 B1 00 03 51 68 01 83 04 40 F3 
[16:18:31.292]收←◆01 03 0F AB 00 03 77 3F 01 83 04 40 F3 
[16:18:31.409]收←◆01 03 0F BD 00 03 96 FB 01 83 04 40 F3 
[16:18:31.521]收←◆01 03 0F C3 00 03 F6 E3 01 83 04 40 F3 
[16:18:31.927]收←◆01 10 04 AF 00 02 04 71 57 28 F8 3E 39 01 10 04 AF 00 02 70 D9 
[16:18:32.095]收←◆01 03 07 E7 00 03 B4 88 01 03 06 CC CD C2 7A 79 80 23 38
后面就没有通讯了...

开机抓取（等于出现了两次开机）：
[16:16:24.650]收←◆01 03 01 8F 00 01 B4 1D 01 03 02 00 00 B8 44 
[16:16:24.865]收←◆01 03 01 91 00 01 D4 1B 01 03 02 00 06 38 46 
[16:16:25.082]收←◆01 03 01 F3 00 0C B4 00 01 03 18 6E 4B 63 69 20 6B 20 20 20 20 20 20 20 20 20 20 20 20 20 20 20 20 20 20 C6 D8 
[16:16:25.296]收←◆01 03 02 0B 00 0C 35 B5 01 03 18 45 53 35 35 58 34 31 2F 4E 2D 53 4D 20 4E 20 20 20 20 20 20 20 20 20 20 D2 D9 
[16:16:25.510]收←◆01 03 02 23 00 0C B5 BD 01 03 18 31 37 32 36 32 34 20 36 20 20 20 20 20 20 20 20 20 20 20 20 20 20 20 20 8B 7A 
[16:16:25.724]收←◆01 03 02 3B 00 0C 35 BA 01 03 18 53 4B 31 47 20 20 20 20 20 20 20 20 20 20 20 20 20 20 20 20 20 20 20 20 D7 CA 
[16:16:25.939]收←◆01 03 02 53 00 0C B4 66 01 03 18 31 30 30 2E 2E 30 36 30 20 2E 20 20 20 20 20 20 20 20 20 20 20 20 20 20 7F EB 
[16:16:26.155]收←◆01 03 02 6B 00 0C 35 AB 01 03 18 31 30 30 2E 2E 35 32 30 20 2E 20 20 20 20 20 20 20 20 20 20 20 20 20 20 F2 16 
[16:16:26.370]收←◆01 03 02 A5 00 01 95 91 01 03 02 00 00 B8 44 
[16:16:26.586]收←◆01 03 02 A7 00 01 34 51 01 03 02 00 01 79 84 
[16:16:27.418]收←◆01 03 03 E7 00 0C F5 BC 01 03 18 31 30 30 2E 2E 30 30 30 20 20 75 42 6C 69 20 64 30 32 33 37 20 20 20 20 EE 0D 
[16:16:27.633]收←◆01 03 03 FF 00 0C 75 BB 01 03 18 6E 4B 63 69 20 6B 20 20 20 20 20 20 20 20 20 20 20 20 20 20 20 20 20 20 C6 D8 
[16:16:27.848]收←◆01 03 04 17 00 0C F4 FB 01 03 18 65 4D 6F 6D 61 52 6C 69 42 20 73 75 20 20 20 20 20 20 20 20 20 20 20 20 43 5F 
[16:16:28.063]收←◆01 03 04 2F 00 0C 75 36 01 03 18 31 41 30 34 4E 35 50 2D 2D 32 31 31 20 30 20 20 20 20 20 20 20 20 20 20 EA 93 
[16:16:28.279]收←◆01 03 04 47 00 0C F4 EA 01 03 18 37 38 30 36 38 32 20 33 20 20 20 20 20 20 20 20 20 20 20 20 20 20 20 20 E1 DE 
[16:16:28.493]收←◆01 03 04 AF 00 02 F5 1A 01 03 04 70 DC 28 F8 3E 8B 
[16:16:28.709]收←◆01 03 00 D3 00 01 75 F3 01 03 02 00 04 B9 87 
[16:16:28.923]收←◆01 03 01 8F 00 01 B4 1D 01 03 02 00 00 B8 44 
[16:16:29.138]收←◆01 03 01 91 00 01 D4 1B 01 03 02 00 06 38 46 
[16:16:29.353]收←◆01 03 01 F3 00 0C B4 00 01 03 18 6E 4B 63 69 20 6B 20 20 20 20 20 20 20 20 20 20 20 20 20 20 20 20 20 20 C6 D8 
[16:16:29.569]收←◆01 03 02 0B 00 0C 35 B5 01 03 18 45 53 35 35 58 34 31 2F 4E 2D 53 4D 20 4E 20 20 20 20 20 20 20 20 20 20 D2 D9 
[16:16:29.783]收←◆01 03 02 23 00 0C B5 BD 01 03 18 31 37 32 36 32 34 20 36 20 20 20 20 20 20 20 20 20 20 20 20 20 20 20 20 8B 7A 
[16:16:29.999]收←◆01 03 02 3B 00 0C 35 BA 01 03 18 53 4B 31 47 20 20 20 20 20 20 20 20 20 20 20 20 20 20 20 20 20 20 20 20 D7 CA 
[16:16:30.213]收←◆01 03 02 53 00 0C B4 66 01 03 18 31 30 30 2E 2E 30 36 30 20 2E 20 20 20 20 20 20 20 20 20 20 20 20 20 20 7F EB 
[16:16:30.428]收←◆01 03 02 6B 00 0C 35 AB 01 03 18 31 30 30 2E 2E 35 32 30 20 2E 20 20 20 20 20 20 20 20 20 20 20 20 20 20 F2 16 
[16:16:30.643]收←◆01 03 02 A5 00 01 95 91 01 03 02 00 00 B8 44 
[16:16:30.858]收←◆01 03 02 A7 00 01 34 51 01 03 02 00 01 79 84 
[16:16:31.477]收←◆01 03 08 11 00 03 57 AE 01 03 06 61 B2 40 FE 85 80 06 1E 
[16:16:31.709]收←◆01 03 07 E7 00 03 B4 88 01 03 06 00 00 C2 7A 86 80 5E D4 
[16:16:31.860]收←◆01 03 07 FF 00 03 34 8F 01 83 04 40 F3 
[16:16:32.012]收←◆01 03 07 DB 00 03 74 84 01 03 06 99 99 41 CB 87 80 27 32 
进入了测量界面，RUN闪烁正常，测量正常